!Agilent Technologies,N5247A,US51370446,A.10.00.00
!Agilent N5247A: A.10.00.00
!Date: Tuesday, October 16, 2018 05:21:46
!Correction: S11(Full 2 Port(1,2)) 
!S21(Full 2 Port(1,2)) 
!S12(Full 2 Port(1,2)) 
!S22(Full 2 Port(1,2)) 
!S2P File: Measurements: S11, S21, S12, S22:
# Hz S  RI   R 50
8.011e+09 -0.80198 -0.60381 9.7531e-05 -0.00081865 1.6003e-05 -0.00095064 0.14037 -0.9999
8.022e+09 -0.80536 -0.59968 -6.2669e-05 -0.00078005 0.00010994 -0.00086445 0.13764 -0.99951
8.033e+09 -0.80988 -0.59467 -3.9624e-05 -0.00086887 1.3321e-05 -0.00084787 0.13688 -1
8.044e+09 -0.8118 -0.5901 5.6902e-05 -0.00082882 9.7299e-05 -0.00083024 0.13333 -1.0007
8.055e+09 -0.81175 -0.58596 -3.5807e-05 -0.0010113 0.00031699 -0.00080812 0.13131 -1.002
8.066e+09 -0.81356 -0.58255 1.7637e-05 -0.00069104 1.0158e-05 -0.00079438 0.12906 -1.0006
8.077e+09 -0.81502 -0.58153 -1.0339e-06 -0.00090572 0.00015041 -0.00078624 0.12649 -1.0002
8.088e+09 -0.81596 -0.5789 2.9443e-05 -0.00075991 -2.1354e-05 -0.00073947 0.12454 -1.0013
8.099e+09 -0.8194 -0.57648 -5.4917e-05 -0.00081789 0.0001583 -0.00082935 0.12193 -1.0009
8.11e+09 -0.82481 -0.57388 -1.068e-05 -0.00088252 2.4517e-06 -0.00081876 0.12002 -1.0007
8.121e+09 -0.82708 -0.56941 7.2569e-05 -0.0009304 9.9569e-05 -0.00076136 0.11808 -1.001
8.132e+09 -0.8299 -0.56412 -6.506e-06 -0.0008338 -0.00012816 -0.00080542 0.11653 -1.0015
8.143e+09 -0.83158 -0.5595 -5.9053e-05 -0.00094061 -2.564e-05 -0.00088651 0.11401 -1.0023
8.154e+09 -0.83248 -0.55576 6.6422e-05 -0.00067312 -0.00026416 -0.00081993 0.11179 -1.0028
8.165e+09 -0.83262 -0.55331 -8.2433e-05 -0.0006838 4.5233e-05 -0.00092848 0.10957 -1.0028
8.176e+09 -0.83516 -0.55241 5.2078e-05 -0.00081992 0.0001461 -0.00066146 0.10636 -1.0012
8.187e+09 -0.83768 -0.55048 7.2892e-05 -0.00098054 0.00013177 -0.000772 0.10406 -1.0016
8.198e+09 -0.84156 -0.54827 9.092e-05 -0.00080787 7.883e-05 -0.00081587 0.1022 -1.001
8.209e+09 -0.84441 -0.54382 -6.1814e-05 -0.00083138 1.5646e-05 -0.00085862 0.10034 -1.0024
8.22e+09 -0.84844 -0.54022 9.7499e-05 -0.00079649 1.0686e-05 -0.00083082 0.098086 -1.001
8.231e+09 -0.85044 -0.53529 0.00015069 -0.00086012 8.7957e-05 -0.00081781 0.095385 -1.0027
8.242e+09 -0.85197 -0.53014 -4.8689e-05 -0.00066907 0.00011699 -0.00079559 0.093687 -1.0027
8.253e+09 -0.8527 -0.52662 5.9026e-05 -0.00084571 0.00012837 -0.00068507 0.091373 -1.0024
8.264e+09 -0.85196 -0.52273 7.6336e-06 -0.00061452 0.00014552 -0.00072036 0.088867 -1.0027
8.275e+09 -0.85452 -0.52138 0.00014622 -0.00094462 0.00015492 -0.00072923 0.086068 -1.0031
8.286e+09 -0.85618 -0.51969 0.00012294 -0.00081238 8.2073e-05 -0.00090105 0.083907 -1.0037
8.297e+09 -0.85875 -0.51703 0.00012782 -0.00083 0.00018065 -0.00079693 0.081594 -1.0028
8.308e+09 -0.86265 -0.51296 0.00016218 -0.00089919 0.00014355 -0.0008323 0.079971 -1.0022
8.319e+09 -0.86567 -0.50901 4.9704e-05 -0.00075284 -2.481e-05 -0.00085405 0.077818 -1.0028
8.33e+09 -0.86743 -0.50429 4.6077e-05 -0.00093055 5.3536e-05 -0.00082225 0.075316 -1.0022
8.341e+09 -0.86874 -0.49985 -3.8037e-05 -0.00086625 0.00013374 -0.00082818 0.073076 -1.0022
8.352e+09 -0.87043 -0.49565 0.00010146 -0.00076486 0.00016475 -0.00082402 0.070886 -1.003
8.363e+09 -0.86914 -0.49263 -2.3376e-05 -0.0011231 -5.4233e-05 -0.00091898 0.068813 -1.0035
8.374e+09 -0.87047 -0.49101 1.1868e-05 -0.00096274 6.9788e-05 -0.00076389 0.06513 -1.0039
8.385e+09 -0.8718 -0.49013 0.00016766 -0.00077586 9.2867e-05 -0.00089333 0.062536 -1.0031
8.396e+09 -0.87634 -0.48849 0.00013791 -0.00087859 0.00020563 -0.00093879 0.060164 -1.0028
8.407e+09 -0.88014 -0.48579 8.948e-05 -0.00085911 8.352e-05 -0.00081338 0.057506 -1.0017
8.418e+09 -0.88321 -0.4797 8.5058e-06 -0.00077159 6.3491e-05 -0.00090786 0.055996 -1.0024
8.429e+09 -0.88434 -0.4745 9.5838e-05 -0.00088767 0.00012713 -0.00089026 0.053458 -1.0024
8.44e+09 -0.88459 -0.47028 0.00015172 -0.0010895 7.0486e-05 -0.00091611 0.050622 -1.0031
8.451e+09 -0.88507 -0.46576 8.8229e-05 -0.00082776 0.00023331 -0.00090848 0.049188 -1.0022
8.462e+09 -0.88686 -0.46322 2.2171e-05 -0.00086239 0.00011342 -0.0008299 0.046912 -1.0024
8.473e+09 -0.88717 -0.46162 0.00013837 -0.0008827 5.4257e-05 -0.00085878 0.044168 -1.0026
8.484e+09 -0.88848 -0.45785 0.00023571 -0.00095579 -8.7463e-06 -0.00088581 0.042587 -1.0032
8.495e+09 -0.89174 -0.45592 8.8929e-05 -0.00086083 0.00017801 -0.00098302 0.040628 -1.004
8.506e+09 -0.89544 -0.45303 8.7994e-05 -0.00099846 8.5709e-05 -0.00095341 0.038 -1.0033
8.517e+09 -0.89847 -0.44702 7.5606e-05 -0.0010389 0.0001624 -0.00073696 0.03538 -1.0029
8.528e+09 -0.89899 -0.44265 4.644e-05 -0.0007397 0.00011956 -0.00081955 0.032909 -1.0029
8.539e+09 -0.90075 -0.439 1.382e-05 -0.00088673 2.074e-05 -0.00080973 0.03111 -1.0025
8.55e+09 -0.90025 -0.43529 -5.0305e-05 -0.00087022 3.2058e-05 -0.00096916 0.028393 -1.0021
8.561e+09 -0.90019 -0.43258 0.00014717 -0.00093134 7.254e-05 -0.0008184 0.025299 -1.0024
8.572e+09 -0.90091 -0.4321 7.7306e-05 -0.00086649 5.3064e-05 -0.00080191 0.022698 -1.002
8.583e+09 -0.90339 -0.42999 0.0001567 -0.00097254 0.00014834 -0.0008452 0.020332 -1.0014
8.594e+09 -0.90609 -0.42766 0.00011483 -0.0010806 2.0791e-05 -0.0010077 0.017661 -1.0011
8.605e+09 -0.90849 -0.42365 3.1551e-05 -0.0009757 5.4478e-05 -0.0009371 0.014756 -1.0028
8.616e+09 -0.91209 -0.41914 -4.2141e-05 -0.00086758 0.00012204 -0.00090579 0.012603 -1.0016
8.627e+09 -0.91278 -0.41461 6.7538e-05 -0.00094473 -6.3025e-05 -0.0010424 0.010076 -1.002
8.638e+09 -0.91272 -0.40887 3.3262e-05 -0.001042 8.0403e-05 -0.00090245 0.0086149 -1.0011
8.649e+09 -0.91165 -0.40477 4.2411e-05 -0.00096883 7.4685e-05 -0.0010906 0.0069063 -1.0018
8.66e+09 -0.9126 -0.40215 4.7697e-05 -0.00088954 0.00012628 -0.0010041 0.0044094 -1.0019
8.671e+09 -0.91351 -0.40084 1.7729e-05 -0.0011974 -2.7669e-05 -0.00097198 0.0020144 -1.0018
8.682e+09 -0.91605 -0.39898 2.9486e-05 -0.00098606 -8.2233e-05 -0.0009693 -0.00035296 -1.0021
8.693e+09 -0.91878 -0.39649 7.6445e-06 -0.00098268 3.2208e-06 -0.00096271 -0.0037235 -1.0015
8.704e+09 -0.92254 -0.39276 -0.00016488 -0.0010538 -4.4183e-05 -0.00098661 -0.0062629 -1.0008
8.715e+09 -0.92338 -0.38718 2.2487e-05 -0.0010161 0.00022164 -0.0010096 -0.008609 -1.0018
8.726e+09 -0.9247 -0.38309 -7.8553e-05 -0.00094216 2.5351e-05 -0.0010381 -0.011862 -1.0006
8.737e+09 -0.92465 -0.37839 5.9202e-05 -0.0010182 -0.00012673 -0.00098083 -0.013319 -0.99945
8.748e+09 -0.92513 -0.37523 -2.3748e-05 -0.00087687 9.2897e-05 -0.00098935 -0.014717 -0.99924
8.759e+09 -0.92597 -0.37292 2.462e-05 -0.00091736 1.995e-05 -0.00095118 -0.017382 -0.99967
8.77e+09 -0.92511 -0.37048 0.00011985 -0.00089772 -1.421e-05 -0.00085158 -0.020127 -1.0005
8.781e+09 -0.92708 -0.36965 6.8034e-05 -0.00086569 -6.9738e-05 -0.00090607 -0.023619 -1.0007
8.792e+09 -0.92923 -0.36713 -4.8685e-05 -0.0010335 -4.9393e-05 -0.00092594 -0.026347 -1.0004
8.803e+09 -0.93119 -0.36395 2.947e-05 -0.00098504 8.2052e-05 -0.0009971 -0.030019 -1.0003
8.814e+09 -0.93373 -0.35999 -0.00027125 -0.00095195 -2.7326e-05 -0.0010145 -0.031982 -0.99903
8.825e+09 -0.93492 -0.35387 -7.6285e-05 -0.0010215 2.3289e-05 -0.00086315 -0.034241 -0.99874
8.836e+09 -0.93559 -0.35 -0.00020566 -0.00098743 3.1067e-05 -0.0010327 -0.0364 -0.99741
8.847e+09 -0.93529 -0.34551 -8.9311e-05 -0.00094203 -2.3041e-05 -0.00085901 -0.03781 -0.99776
8.858e+09 -0.93428 -0.3428 -0.00011004 -0.001034 -0.00012386 -0.0011492 -0.039949 -0.99803
8.869e+09 -0.93461 -0.341 6.8199e-05 -0.0010391 -5.006e-05 -0.0011488 -0.042346 -0.99805
8.88e+09 -0.93722 -0.33952 9.989e-06 -0.0010834 -7.1173e-05 -0.0010277 -0.04488 -0.9987
8.891e+09 -0.93941 -0.33749 5.6751e-05 -0.0011156 -0.00011326 -0.0010893 -0.048574 -0.99808
8.902e+09 -0.9418 -0.33302 0.0001381 -0.0010647 -8.2156e-05 -0.0010154 -0.051412 -0.99798
8.913e+09 -0.94426 -0.32929 5.7616e-05 -0.0011564 9.4967e-05 -0.0010788 -0.053877 -0.99627
8.924e+09 -0.94442 -0.32424 -0.00010026 -0.0010826 -3.3511e-05 -0.0010467 -0.05585 -0.99606
8.935e+09 -0.94381 -0.32012 -4.1429e-05 -0.0010383 -6.7754e-05 -0.0010455 -0.058316 -0.99614
8.946e+09 -0.94385 -0.31756 -0.00025681 -0.00089248 -0.00010537 -0.0010956 -0.060995 -0.99614
8.957e+09 -0.94334 -0.31558 -9.6241e-05 -0.0009769 -0.00031344 -0.00092118 -0.06472 -0.99587
8.968e+09 -0.94289 -0.31352 -9.7365e-05 -0.00091402 -8.4227e-05 -0.001042 -0.067373 -0.99533
8.979e+09 -0.94463 -0.31154 -0.00025895 -0.00080278 -0.00017391 -0.0011237 -0.069502 -0.99544
8.99e+09 -0.94707 -0.30878 -4.5257e-05 -0.00095932 -0.0002004 -0.00094708 -0.071794 -0.99527
9.001e+09 -0.94994 -0.30486 -0.0001789 -0.00093547 -7.4591e-05 -0.00096827 -0.074548 -0.99443
9.012e+09 -0.95194 -0.30017 -0.0001346 -0.00089241 -4.1763e-05 -0.00091043 -0.076303 -0.99398
9.023e+09 -0.95265 -0.29406 -0.00027793 -0.0010621 -5.3658e-05 -0.00087745 -0.07838 -0.99386
9.034e+09 -0.95207 -0.28987 -0.00015863 -0.0010806 -0.00027864 -0.0009582 -0.080108 -0.9944
9.045e+09 -0.95128 -0.28673 -0.00010188 -0.0010109 3.9028e-05 -0.0010418 -0.082682 -0.9934
9.056e+09 -0.9505 -0.28499 -0.00024871 -0.0009545 -6.4028e-05 -0.00094868 -0.086056 -0.99368
9.067e+09 -0.95043 -0.28226 -4.6904e-05 -0.00092083 1.2762e-05 -0.00081424 -0.088547 -0.99367
9.078e+09 -0.95105 -0.28203 -0.00011151 -0.0010224 -0.00019789 -0.0010147 -0.091942 -0.99342
9.089e+09 -0.95455 -0.27871 -0.00010795 -0.00093909 -8.0269e-05 -0.0010541 -0.094121 -0.99256
9.1e+09 -0.95645 -0.2754 -9.5831e-05 -0.00098034 -8.3489e-05 -0.0009658 -0.097075 -0.99245
9.111e+09 -0.95883 -0.27133 -0.00013599 -0.0010148 -0.00012235 -0.0010551 -0.10012 -0.99078
9.122e+09 -0.95937 -0.26618 -0.00019727 -0.00086215 -2.9815e-05 -0.00099062 -0.10229 -0.99056
9.133e+09 -0.95989 -0.26272 -6.7373e-05 -0.0010159 -9.6506e-05 -0.001106 -0.10536 -0.98968
9.144e+09 -0.95789 -0.25992 -6.161e-05 -0.0010238 -5.8487e-05 -0.00098006 -0.10728 -0.98955
9.155e+09 -0.95792 -0.25759 -0.00017009 -0.0010241 -0.00018064 -0.00091901 -0.11035 -0.989
9.166e+09 -0.95766 -0.25461 -3.1385e-05 -0.00097642 -0.00014995 -0.0010092 -0.11255 -0.98961
9.177e+09 -0.95914 -0.25323 -7.0221e-05 -0.00090953 -2.6453e-06 -0.00087374 -0.11565 -0.98897
9.188e+09 -0.96087 -0.25012 -0.00012092 -0.00098836 -9.7708e-05 -0.00094033 -0.11789 -0.98844
9.199e+09 -0.96241 -0.24679 -0.00019476 -0.00098253 -0.00011364 -0.0010248 -0.12036 -0.98891
9.21e+09 -0.96367 -0.24216 -2.608e-05 -0.00095253 -8.2404e-05 -0.0010556 -0.12282 -0.98884
9.221e+09 -0.96412 -0.23775 -6.6035e-05 -0.00099875 -0.0001228 -0.0010496 -0.1261 -0.98855
9.232e+09 -0.96376 -0.2337 -0.00023474 -0.00086657 -6.5554e-05 -0.0010067 -0.12842 -0.98724
9.243e+09 -0.96313 -0.22995 -4.7474e-05 -0.00088146 -0.00018377 -0.0010436 -0.13158 -0.98622
9.254e+09 -0.96331 -0.22832 -4.8283e-05 -0.0012571 -5.7669e-05 -0.001103 -0.13423 -0.98586
9.265e+09 -0.96274 -0.22625 -9.5231e-05 -0.0010974 -0.00010619 -0.00095138 -0.13693 -0.98498
9.276e+09 -0.96422 -0.22481 -6.1761e-05 -0.00087868 -0.00011643 -0.0010434 -0.13924 -0.98495
9.287e+09 -0.96737 -0.2228 -5.8251e-05 -0.0010963 -0.0002596 -0.0010674 -0.14278 -0.98387
9.298e+09 -0.96885 -0.21896 -0.00011892 -0.00091166 -0.00013658 -0.00096862 -0.14593 -0.98369
9.309e+09 -0.9695 -0.21435 -0.00018682 -0.00098111 -0.00022643 -0.0010932 -0.14807 -0.98306
9.32e+09 -0.96979 -0.20999 -0.00021483 -0.0010481 -0.0001088 -0.0010063 -0.15144 -0.98237
9.331e+09 -0.96957 -0.2065 -0.00013109 -0.0010685 -8.0678e-05 -0.00085109 -0.15363 -0.9818
9.342e+09 -0.96761 -0.20293 -0.00010709 -0.00099333 -2.9501e-05 -0.0010206 -0.15666 -0.98183
9.353e+09 -0.96776 -0.20053 -0.00012128 -0.0011616 -0.00015449 -0.0011379 -0.15896 -0.98126
9.364e+09 -0.96826 -0.19877 -5.9848e-05 -0.0009233 -0.0001523 -0.0011301 -0.16216 -0.98105
9.375e+09 -0.96825 -0.19709 -0.00012636 -0.00082999 -4.1884e-05 -0.0010598 -0.16477 -0.98075
9.386e+09 -0.97022 -0.19454 -0.00033037 -0.00094622 -0.00023869 -0.0010295 -0.16732 -0.98051
9.397e+09 -0.97189 -0.19055 -0.00020985 -0.00095107 -0.00017418 -0.0010296 -0.17055 -0.97986
9.408e+09 -0.97286 -0.18724 -0.00017929 -0.0010483 -0.00021365 -0.0011165 -0.17321 -0.97849
9.419e+09 -0.97419 -0.18185 -0.00020631 -0.00091681 -0.00020469 -0.0010468 -0.17603 -0.9777
9.43e+09 -0.97322 -0.17712 -0.00018455 -0.00098799 -7.0491e-05 -0.00089969 -0.17754 -0.97772
9.441e+09 -0.97316 -0.1738 -0.00015799 -0.0010389 -0.00010524 -0.0010635 -0.18073 -0.97616
9.452e+09 -0.97227 -0.17132 -0.0001877 -0.0010236 -0.00012066 -0.00086168 -0.18301 -0.97513
9.463e+09 -0.97225 -0.17052 -0.0001008 -0.00094066 -0.00011883 -0.0011039 -0.18659 -0.97487
9.474e+09 -0.9729 -0.16855 -0.0001189 -0.0009832 -6.3604e-05 -0.00098805 -0.1892 -0.97395
9.485e+09 -0.97559 -0.16535 -0.00012589 -0.0010832 -0.00016681 -0.0010616 -0.19181 -0.97341
9.496e+09 -0.97638 -0.16281 -0.00011516 -0.0010035 -6.4209e-05 -0.00097968 -0.1957 -0.97335
9.507e+09 -0.97757 -0.15895 -0.00014533 -0.0010296 -0.00021027 -0.0011057 -0.1991 -0.97263
9.518e+09 -0.9779 -0.15488 -8.4382e-05 -0.00092918 -9.5047e-05 -0.0010059 -0.20182 -0.97183
9.529e+09 -0.97834 -0.15035 -0.00011315 -0.0010114 -0.00020379 -0.00094988 -0.20498 -0.97024
9.54e+09 -0.97676 -0.14712 -9.9971e-05 -0.00095995 6.1375e-06 -0.0011207 -0.20717 -0.96939
9.551e+09 -0.97616 -0.14341 -0.00018666 -0.0009881 -0.00011906 -0.0010563 -0.20886 -0.96916
9.562e+09 -0.97581 -0.14243 -0.00014852 -0.0010717 -6.1573e-05 -0.00094054 -0.21218 -0.96818
9.573e+09 -0.97743 -0.13939 -0.00013984 -0.0010244 -0.00014084 -0.0011138 -0.21384 -0.96821
9.584e+09 -0.97856 -0.13622 -6.1817e-05 -0.001086 -0.00013746 -0.0011017 -0.21588 -0.96786
9.595e+09 -0.98035 -0.13238 -0.00024042 -0.0011374 -3.3727e-05 -0.0010213 -0.21891 -0.96788
9.606e+09 -0.9804 -0.12824 -0.00010193 -0.0009737 -9.6987e-05 -0.0012257 -0.22249 -0.96786
9.617e+09 -0.98021 -0.12421 -0.00018475 -0.0010209 1.3923e-05 -0.0010453 -0.22561 -0.96673
9.628e+09 -0.98086 -0.12001 -0.00015049 -0.0010902 -0.00022682 -0.0011211 -0.22914 -0.96475
9.639e+09 -0.97895 -0.11643 -0.0002478 -0.001148 -0.00022856 -0.00099645 -0.23148 -0.96403
9.65e+09 -0.97941 -0.11395 -0.00016489 -0.0010195 -6.0322e-06 -0.0010702 -0.23418 -0.96234
9.661e+09 -0.97781 -0.11277 -0.00010201 -0.0010283 -7.7822e-05 -0.001021 -0.23737 -0.96288
9.672e+09 -0.97912 -0.11078 -0.00011151 -0.0011303 -0.00018894 -0.0010735 -0.24008 -0.96133
9.683e+09 -0.97963 -0.10862 -0.00017008 -0.0010544 -0.0003004 -0.0010245 -0.2438 -0.96089
9.694e+09 -0.98238 -0.10493 -4.7288e-06 -0.0011697 -4.7517e-05 -0.0010113 -0.24674 -0.95906
9.705e+09 -0.9831 -0.099673 -0.00021826 -0.001153 -0.00015953 -0.00096213 -0.24929 -0.95944
9.716e+09 -0.98184 -0.095333 -0.00018082 -0.00093701 -0.00011455 -0.00099913 -0.2522 -0.95864
9.727e+09 -0.98093 -0.092687 -0.00016822 -0.0010923 -0.00019455 -0.0011572 -0.25571 -0.95793
9.738e+09 -0.98103 -0.088647 -0.00016419 -0.0012151 -9.8759e-05 -0.0012206 -0.25853 -0.95641
9.749e+09 -0.97981 -0.085926 -0.00024621 -0.0010487 -9.6043e-05 -0.0010431 -0.26099 -0.9561
9.76e+09 -0.97858 -0.083973 -5.707e-05 -0.0012887 -0.00022034 -0.0011353 -0.26364 -0.95492
9.771e+09 -0.97994 -0.081472 -0.00014259 -0.0012394 -5.9594e-05 -0.0010746 -0.26674 -0.95382
9.782e+09 -0.98111 -0.07912 -0.00021679 -0.0012095 -0.00031638 -0.0010864 -0.26998 -0.95418
9.793e+09 -0.9829 -0.075806 -1.9466e-05 -0.0011348 -0.00017597 -0.0010642 -0.27272 -0.95322
9.804e+09 -0.98448 -0.071071 -0.00018222 -0.0011626 -0.00014161 -0.0011154 -0.27569 -0.9507
9.815e+09 -0.98473 -0.06654 6.188e-06 -0.00105 -0.00015288 -0.001237 -0.27893 -0.95022
9.826e+09 -0.98341 -0.062925 -0.00018848 -0.0011359 -0.00010609 -0.0011553 -0.28263 -0.94951
9.837e+09 -0.98261 -0.059683 -0.00020243 -0.0011273 -0.00020129 -0.0011302 -0.28546 -0.94738
9.848e+09 -0.98092 -0.057035 1.0633e-05 -0.0010427 -0.00019198 -0.00118 -0.28791 -0.94633
9.859e+09 -0.98149 -0.055305 -6.559e-05 -0.0011847 -0.00010725 -0.0011561 -0.29009 -0.94481
9.87e+09 -0.981 -0.052129 -4.749e-05 -0.001245 -0.00026855 -0.0011684 -0.29253 -0.94444
9.881e+09 -0.98226 -0.049419 -5.4775e-05 -0.0011206 -1.4317e-05 -0.0010385 -0.29623 -0.94522
9.892e+09 -0.98364 -0.046344 -1.0796e-05 -0.0014165 -0.000141 -0.0012559 -0.30011 -0.94443
9.903e+09 -0.98489 -0.041716 -0.0002125 -0.0012777 -0.00013322 -0.0011975 -0.30364 -0.94316
9.914e+09 -0.984 -0.036526 -8.6523e-05 -0.0011246 -7.3707e-06 -0.0012226 -0.30642 -0.94078
9.925e+09 -0.98203 -0.033659 -0.00015865 -0.0012986 -0.00015518 -0.0012228 -0.3103 -0.9412
9.936e+09 -0.98115 -0.030308 2.8077e-06 -0.001399 -7.7766e-05 -0.0012548 -0.31199 -0.93938
9.947e+09 -0.98064 -0.028005 -0.00011607 -0.0012328 -0.0001668 -0.0012078 -0.31538 -0.93719
9.958e+09 -0.98068 -0.026281 -0.00031104 -0.0012826 -9.7324e-05 -0.0012793 -0.31938 -0.93701
9.969e+09 -0.98226 -0.022965 -0.00026599 -0.0012937 -5.6772e-05 -0.0012073 -0.32111 -0.9352
9.98e+09 -0.98384 -0.020297 -0.00016817 -0.0011888 -0.00011084 -0.0012325 -0.32393 -0.93422
9.991e+09 -0.98425 -0.01602 -7.1512e-05 -0.0011992 -0.00016894 -0.0012223 -0.32693 -0.93362
1.0002e+10 -0.9851 -0.011919 -3.9269e-05 -0.0010753 2.933e-05 -0.001199 -0.33073 -0.93168
1.0013e+10 -0.98465 -0.0074891 -9.6121e-05 -0.0011682 -2.5916e-05 -0.0014747 -0.33402 -0.92973
1.0024e+10 -0.98433 -0.0032793 9.2343e-06 -0.0011558 9.1578e-05 -0.001482 -0.33718 -0.92832
1.0035e+10 -0.98245 0.00058847 -0.00021938 -0.001202 -0.00010884 -0.0011786 -0.33929 -0.9265
1.0046e+10 -0.98105 0.00313 -0.00017849 -0.0013237 -0.00011497 -0.0012615 -0.34234 -0.92607
1.0057e+10 -0.98127 0.0051729 -0.00015803 -0.001278 -0.00015231 -0.0012662 -0.34536 -0.92471
1.0068e+10 -0.98135 0.0071592 -0.00010887 -0.0012881 -0.00014309 -0.0014339 -0.34888 -0.92407
1.0079e+10 -0.98193 0.010548 -0.00018292 -0.0012091 -0.00030789 -0.0012656 -0.35246 -0.92352
1.009e+10 -0.98383 0.014437 -0.00026515 -0.0014013 8.6757e-06 -0.0013733 -0.35569 -0.92162
1.0101e+10 -0.98337 0.018542 -0.00013104 -0.0014154 -0.00016928 -0.0014238 -0.35903 -0.92056
1.0112e+10 -0.98372 0.024446 -0.00016212 -0.0013132 -0.00034395 -0.0013041 -0.36155 -0.91866
1.0123e+10 -0.98236 0.028985 -0.00018188 -0.0013447 -0.0001738 -0.0014892 -0.36408 -0.91607
1.0134e+10 -0.98068 0.033335 -0.00025863 -0.0014064 -0.00023865 -0.0014219 -0.3655 -0.91432
1.0145e+10 -0.97899 0.035696 -0.00030737 -0.0014725 -0.00024874 -0.0014234 -0.36844 -0.91541
1.0156e+10 -0.978 0.036958 -0.00012592 -0.0015021 -0.00020684 -0.0013634 -0.37198 -0.91551
1.0167e+10 -0.97953 0.038939 -0.00021729 -0.0014397 -0.00017697 -0.0013786 -0.37666 -0.91387
1.0178e+10 -0.98004 0.042436 -0.00025013 -0.0014938 -0.00030323 -0.0014409 -0.37998 -0.91183
1.0189e+10 -0.98241 0.046651 -0.00019223 -0.001352 -0.00014471 -0.0013845 -0.3836 -0.90816
1.02e+10 -0.98288 0.050762 -9.7326e-05 -0.0014414 -7.1283e-05 -0.0012857 -0.38656 -0.90571
1.0211e+10 -0.9819 0.056525 -0.00014485 -0.0014188 -0.00015237 -0.001388 -0.3881 -0.90475
1.0222e+10 -0.97985 0.060759 -0.00017746 -0.0013356 -0.00025532 -0.0013028 -0.39103 -0.9044
1.0233e+10 -0.978 0.063445 -0.00023439 -0.0015016 -0.00015789 -0.0015204 -0.39525 -0.90315
1.0244e+10 -0.97857 0.065388 -0.00019263 -0.0014857 -7.8036e-05 -0.0015473 -0.39859 -0.90145
1.0255e+10 -0.97749 0.067749 -0.00020137 -0.0015332 -0.00021862 -0.0014342 -0.40157 -0.90026
1.0266e+10 -0.97816 0.070773 -0.00026479 -0.0015168 -0.00028641 -0.0015627 -0.40516 -0.89898
1.0277e+10 -0.97888 0.074759 -0.00033499 -0.0015141 -0.00018496 -0.0015153 -0.40847 -0.89751
1.0288e+10 -0.97973 0.079694 -0.0003262 -0.0012789 -0.00026685 -0.0013777 -0.41197 -0.89585
1.0299e+10 -0.9788 0.085097 -0.00023994 -0.0014502 -0.00025027 -0.0013894 -0.41404 -0.89375
1.031e+10 -0.97815 0.089311 -6.1386e-05 -0.001669 -0.00038195 -0.0015312 -0.41722 -0.89175
1.0321e+10 -0.97609 0.09369 -0.00017515 -0.0015563 -0.00021765 -0.0015294 -0.41934 -0.89107
1.0332e+10 -0.974 0.097411 -0.00034155 -0.0014458 -0.00026869 -0.0014807 -0.42325 -0.89008
1.0343e+10 -0.97351 0.099181 -0.00024046 -0.001522 -0.00030407 -0.0015312 -0.42662 -0.88703
1.0354e+10 -0.9736 0.10024 -8.3819e-05 -0.0016732 -0.00025983 -0.0016205 -0.43029 -0.88535
1.0365e+10 -0.97502 0.10327 -0.00019301 -0.0015678 -0.00021795 -0.0016319 -0.43363 -0.88352
