!Agilent Technologies,N5247A,US51370446,A.10.00.00
!Agilent N5247A: A.10.00.00
!Date: Tuesday, October 16, 2018 05:30:40
!Correction: S11(Full 2 Port(1,2)) 
!S21(Full 2 Port(1,2)) 
!S12(Full 2 Port(1,2)) 
!S22(Full 2 Port(1,2)) 
!S2P File: Measurements: S11, S21, S12, S22:
# Hz S  RI   R 50
8.011e+09 -0.82235 -0.57636 0.000424 -0.0011367 0.00027461 -0.00095453 -0.18308 -1.0007
8.022e+09 -0.82472 -0.57338 0.00039414 -0.0011336 0.00033034 -0.0010067 -0.18586 -0.99905
8.033e+09 -0.82881 -0.56822 0.00028986 -0.00093433 0.00012502 -0.0010474 -0.18759 -0.99943
8.044e+09 -0.83001 -0.56405 0.00023186 -0.0011225 0.00037204 -0.0011892 -0.19115 -0.99842
8.055e+09 -0.82993 -0.56119 0.00031929 -0.0010142 0.00038487 -0.00086326 -0.19459 -0.99944
8.066e+09 -0.83057 -0.55776 0.00033408 -0.00096182 0.00031457 -0.00107 -0.19634 -0.99736
8.077e+09 -0.83173 -0.55726 0.00032362 -0.001025 0.00031725 -0.0010891 -0.19998 -0.99649
8.088e+09 -0.833 -0.55534 0.00030614 -0.0010394 0.00028648 -0.00096953 -0.20271 -0.99633
8.099e+09 -0.83598 -0.55323 0.00014735 -0.00089384 0.00028006 -0.001071 -0.20553 -0.99545
8.11e+09 -0.84083 -0.55088 0.00015114 -0.0010203 0.00026876 -0.00099881 -0.20791 -0.99394
8.121e+09 -0.8422 -0.54677 0.00043678 -0.0010826 0.00012534 -0.0010257 -0.21049 -0.99394
8.132e+09 -0.84473 -0.5422 0.00031035 -0.0010429 0.00038085 -0.0011068 -0.21264 -0.99364
8.143e+09 -0.84566 -0.53774 0.00043251 -0.0010362 0.00027062 -0.00098355 -0.21558 -0.99359
8.154e+09 -0.84586 -0.53428 0.00028111 -0.0011185 0.00038965 -0.0011325 -0.21879 -0.99302
8.165e+09 -0.84556 -0.53272 0.00029902 -0.0010143 0.00033057 -0.0010633 -0.22168 -0.99204
8.176e+09 -0.84836 -0.5321 0.00032163 -0.0009894 0.00036882 -0.0010243 -0.22483 -0.98986
8.187e+09 -0.85083 -0.53091 0.00014209 -0.00097671 0.00012998 -0.00098854 -0.22714 -0.9888
8.198e+09 -0.85341 -0.52866 0.00037345 -0.0010644 0.00034331 -0.00089107 -0.22949 -0.9881
8.209e+09 -0.85657 -0.52465 0.00024952 -0.0010371 0.00043761 -0.00098089 -0.23256 -0.98896
8.22e+09 -0.86005 -0.52209 0.00031458 -0.0010273 0.00035011 -0.00096186 -0.23461 -0.98733
8.231e+09 -0.86077 -0.51716 0.00022651 -0.0011038 0.00040286 -0.0010002 -0.23808 -0.98662
8.242e+09 -0.86206 -0.51222 0.00041736 -0.00095419 0.00028833 -0.0011497 -0.24043 -0.98642
8.253e+09 -0.86334 -0.50946 0.00023532 -0.0012505 0.00041637 -0.0009265 -0.2432 -0.9858
8.264e+09 -0.86203 -0.50678 0.00036232 -0.0011522 0.00033217 -0.00116 -0.24634 -0.98574
8.275e+09 -0.86374 -0.50508 0.0002771 -0.0012544 0.00036455 -0.0011012 -0.24918 -0.98424
8.286e+09 -0.86484 -0.50405 0.00029224 -0.0012432 0.00042789 -0.0011085 -0.25226 -0.98387
8.297e+09 -0.86763 -0.50162 0.00030043 -0.0010291 0.00028094 -0.0011575 -0.25448 -0.98282
8.308e+09 -0.87155 -0.4984 0.00026868 -0.0010576 0.00028355 -0.0010606 -0.25672 -0.98127
8.319e+09 -0.87369 -0.49458 0.00022752 -0.0010965 0.0002346 -0.0011541 -0.25906 -0.97997
8.33e+09 -0.87511 -0.49009 0.00034138 -0.0011614 0.00030684 -0.001055 -0.26214 -0.97991
8.341e+09 -0.87576 -0.48639 0.00025854 -0.0011009 0.00032345 -0.0012076 -0.265 -0.97881
8.352e+09 -0.87701 -0.48254 0.0004022 -0.0012231 0.00026256 -0.0011212 -0.26775 -0.97816
8.363e+09 -0.87583 -0.4797 0.00039221 -0.0011503 0.00039513 -0.0010566 -0.27034 -0.97822
8.374e+09 -0.87702 -0.47913 0.00039444 -0.0011636 0.00030582 -0.0011282 -0.27442 -0.9769
8.385e+09 -0.87866 -0.47857 0.00026495 -0.001193 0.00033505 -0.0011526 -0.27739 -0.97544
8.396e+09 -0.88163 -0.4772 0.00040214 -0.0012876 0.00038904 -0.001153 -0.27967 -0.97368
8.407e+09 -0.88528 -0.47442 0.00035827 -0.0011146 0.00044461 -0.0010681 -0.28249 -0.97195
8.418e+09 -0.88775 -0.46904 0.00039347 -0.001269 0.00036103 -0.001093 -0.28496 -0.97215
8.429e+09 -0.88937 -0.4643 0.00038157 -0.0012038 0.00041948 -0.0010815 -0.28772 -0.97131
8.44e+09 -0.8896 -0.46048 0.00037149 -0.0011281 0.00038858 -0.0012277 -0.29122 -0.97048
8.451e+09 -0.88938 -0.45651 0.0002945 -0.0012418 0.00036955 -0.0012806 -0.29264 -0.96938
8.462e+09 -0.89111 -0.45434 0.00039713 -0.0011651 0.0003705 -0.0011538 -0.29528 -0.96873
8.473e+09 -0.89087 -0.4532 0.00037106 -0.001113 0.00028644 -0.0012191 -0.29813 -0.96803
8.484e+09 -0.89195 -0.4496 0.00023632 -0.0013212 0.00029757 -0.0011984 -0.30092 -0.968
8.495e+09 -0.89586 -0.44813 0.00013164 -0.0012872 0.00025327 -0.001238 -0.30366 -0.96743
8.506e+09 -0.89788 -0.44515 0.00025138 -0.0012707 0.00031598 -0.0012709 -0.30642 -0.96552
8.517e+09 -0.90088 -0.43984 0.00037448 -0.0011966 0.00039759 -0.0012098 -0.30831 -0.96407
8.528e+09 -0.90201 -0.43601 0.0002703 -0.0014885 0.00027086 -0.0012104 -0.31148 -0.9635
8.539e+09 -0.90292 -0.43239 0.00026728 -0.0011703 0.00034609 -0.0012289 -0.31346 -0.96193
8.55e+09 -0.90201 -0.42882 0.00032259 -0.0012587 0.00033329 -0.0011549 -0.31646 -0.9613
8.561e+09 -0.90208 -0.42682 0.00029883 -0.0011954 0.00028246 -0.0011989 -0.32017 -0.96059
8.572e+09 -0.90312 -0.42634 0.0003346 -0.0012179 0.00032191 -0.0011765 -0.32296 -0.95846
8.583e+09 -0.90475 -0.4246 0.00026506 -0.0011172 0.00036138 -0.0012448 -0.3257 -0.95764
8.594e+09 -0.90772 -0.42242 0.00037225 -0.0011998 0.00021426 -0.0012414 -0.32849 -0.95585
8.605e+09 -0.90971 -0.41862 0.00028376 -0.0012189 0.00015854 -0.0012243 -0.33228 -0.95579
8.616e+09 -0.91299 -0.41445 0.00027291 -0.0012407 0.00035084 -0.0012762 -0.33431 -0.95411
8.627e+09 -0.91362 -0.40978 0.00023742 -0.0012644 0.00025435 -0.0012662 -0.33707 -0.95338
8.638e+09 -0.91279 -0.40434 0.00038081 -0.0012009 0.00025209 -0.0012835 -0.33868 -0.9519
8.649e+09 -0.91301 -0.40122 0.00031773 -0.0013767 0.00025914 -0.0012462 -0.34119 -0.95238
8.66e+09 -0.91301 -0.39873 0.0002634 -0.0012385 0.0002803 -0.0012094 -0.34403 -0.95124
8.671e+09 -0.91333 -0.39732 0.00013897 -0.0012355 0.00036264 -0.0013924 -0.34705 -0.95047
8.682e+09 -0.91625 -0.39631 0.00040169 -0.0012789 0.00019477 -0.0013366 -0.34946 -0.94911
8.693e+09 -0.91895 -0.3934 0.00016093 -0.0011811 0.00035966 -0.0014014 -0.35302 -0.94762
8.704e+09 -0.922 -0.38992 0.00030829 -0.0013189 0.00039189 -0.0012266 -0.35496 -0.94531
8.715e+09 -0.92266 -0.38455 0.00028505 -0.0012164 0.00021888 -0.0012586 -0.35794 -0.94454
8.726e+09 -0.92462 -0.38079 0.00025182 -0.0013084 0.00022488 -0.001424 -0.36049 -0.94282
8.737e+09 -0.92425 -0.37639 0.00039486 -0.0013277 0.00024212 -0.0012671 -0.36273 -0.94164
8.748e+09 -0.92452 -0.3732 0.00031218 -0.0013603 0.00033177 -0.0013177 -0.3643 -0.94066
8.759e+09 -0.9252 -0.37115 0.00023916 -0.0014701 0.00033047 -0.001254 -0.3673 -0.94007
8.77e+09 -0.92444 -0.36863 0.00032902 -0.001431 0.00024183 -0.0013255 -0.37055 -0.93964
8.781e+09 -0.92623 -0.36812 0.00021674 -0.0012406 0.00039434 -0.0013984 -0.37435 -0.93847
8.792e+09 -0.92834 -0.36573 0.0002016 -0.0014118 0.00045884 -0.0013283 -0.37765 -0.93658
8.803e+09 -0.92971 -0.36241 0.0002606 -0.0013197 0.00025675 -0.0014834 -0.38064 -0.93573
8.814e+09 -0.93307 -0.35855 0.00035132 -0.0013918 0.00038498 -0.001339 -0.38266 -0.93359
8.825e+09 -0.93337 -0.35279 0.00022845 -0.0012861 0.00026556 -0.0014668 -0.38473 -0.93237
8.836e+09 -0.93422 -0.34916 0.000244 -0.0014364 0.00014485 -0.0012735 -0.3866 -0.9305
8.847e+09 -0.93397 -0.34483 0.00026681 -0.0013149 0.00035004 -0.0012848 -0.38877 -0.92975
8.858e+09 -0.93283 -0.34184 0.000339 -0.0013036 0.00023191 -0.0013319 -0.39076 -0.92985
8.869e+09 -0.9334 -0.34033 8.8653e-05 -0.0012852 0.00038527 -0.0012817 -0.39399 -0.92891
8.88e+09 -0.93546 -0.33882 0.00024072 -0.001334 0.00029824 -0.001293 -0.39703 -0.92734
8.891e+09 -0.93737 -0.33672 0.00033995 -0.0013118 0.0003787 -0.0014028 -0.40016 -0.92487
8.902e+09 -0.94055 -0.33275 0.00030818 -0.0014407 0.00031272 -0.0014406 -0.40316 -0.9241
8.913e+09 -0.94267 -0.32864 0.00021981 -0.0013746 0.00033144 -0.0012428 -0.40467 -0.92194
8.924e+09 -0.94337 -0.32361 0.00017992 -0.0013708 0.00011699 -0.0013412 -0.40701 -0.92067
8.935e+09 -0.94264 -0.31963 8.0665e-05 -0.0013285 0.00024041 -0.0014298 -0.41001 -0.92038
8.946e+09 -0.94234 -0.31667 0.00032371 -0.0012803 0.00024045 -0.0013863 -0.41315 -0.91848
8.957e+09 -0.94135 -0.31492 0.00028605 -0.0013305 0.00024066 -0.0014104 -0.41718 -0.9171
8.968e+09 -0.94134 -0.31251 0.00015419 -0.0013162 0.00028847 -0.0013803 -0.41956 -0.91552
8.979e+09 -0.94277 -0.31087 0.00022447 -0.0013974 0.00028623 -0.001407 -0.42175 -0.91446
8.99e+09 -0.94543 -0.30777 0.0002404 -0.001352 0.00030198 -0.0013233 -0.42423 -0.91326
9.001e+09 -0.94822 -0.30405 0.00032792 -0.0012593 0.00018991 -0.001371 -0.42668 -0.91197
9.012e+09 -0.95007 -0.29905 0.00035636 -0.0014652 0.00016312 -0.0013782 -0.42832 -0.91042
9.023e+09 -0.95087 -0.29303 0.00019035 -0.0013691 0.00021128 -0.0013893 -0.43043 -0.90927
9.034e+09 -0.94998 -0.28847 0.00030632 -0.001445 0.00018631 -0.0014948 -0.43267 -0.90911
9.045e+09 -0.94987 -0.28536 0.000137 -0.001333 0.00029703 -0.0014084 -0.43509 -0.90675
9.056e+09 -0.94855 -0.28328 0.00014449 -0.0013587 0.0002406 -0.0014174 -0.43857 -0.90626
9.067e+09 -0.94838 -0.28068 0.00013603 -0.0013699 0.00020008 -0.0015366 -0.44094 -0.90535
9.078e+09 -0.94969 -0.28023 0.00028429 -0.0014827 0.00026895 -0.0014446 -0.44424 -0.90324
9.089e+09 -0.95322 -0.27658 0.00029586 -0.001532 0.00039146 -0.0015432 -0.44624 -0.90163
9.1e+09 -0.95484 -0.27336 0.00029245 -0.0014195 0.00025217 -0.0014491 -0.44944 -0.9003
9.111e+09 -0.95757 -0.26935 0.00025738 -0.0014948 0.0001586 -0.0014931 -0.45173 -0.89733
9.122e+09 -0.95786 -0.26372 0.00028554 -0.0016755 0.00037972 -0.0013028 -0.45388 -0.89599
9.133e+09 -0.95839 -0.2604 0.00031053 -0.0014772 0.00017612 -0.0015273 -0.45598 -0.89395
9.144e+09 -0.9566 -0.25741 0.00034992 -0.0014022 0.00036231 -0.0015044 -0.45914 -0.89312
9.155e+09 -0.95628 -0.25485 0.00030622 -0.0014032 0.00032199 -0.0016586 -0.46151 -0.89126
9.166e+09 -0.95603 -0.25159 0.00014147 -0.0015808 0.00028536 -0.0015627 -0.46389 -0.89107
9.177e+09 -0.95791 -0.2502 0.0002006 -0.0014701 0.0001557 -0.0015265 -0.46684 -0.88924
9.188e+09 -0.95997 -0.2467 0.00023254 -0.0014023 0.00032185 -0.001486 -0.46885 -0.88753
9.199e+09 -0.96094 -0.24316 0.00027971 -0.0015072 0.00036614 -0.0014813 -0.47168 -0.8867
9.21e+09 -0.96215 -0.23797 0.00031169 -0.0014734 0.00024762 -0.0015341 -0.47433 -0.88579
9.221e+09 -0.96241 -0.23299 0.00036638 -0.001601 0.00021939 -0.001567 -0.47753 -0.88434
9.232e+09 -0.96256 -0.22918 0.00030028 -0.0015667 0.00029768 -0.0014907 -0.47917 -0.88238
9.243e+09 -0.9621 -0.22536 0.00035796 -0.0015344 0.00028914 -0.0015423 -0.4817 -0.88001
9.254e+09 -0.96211 -0.22335 0.00029271 -0.0015414 0.00020078 -0.0016401 -0.48418 -0.87856
9.265e+09 -0.96163 -0.22108 0.00028078 -0.0016583 0.00025212 -0.0015529 -0.48685 -0.8772
9.276e+09 -0.96373 -0.21949 0.00031573 -0.0016231 0.00031125 -0.0015377 -0.48925 -0.87591
9.287e+09 -0.96598 -0.21679 0.00042751 -0.0015794 0.00023715 -0.0016553 -0.49219 -0.87326
9.298e+09 -0.96829 -0.21264 0.00031253 -0.0015891 0.00023368 -0.001539 -0.49437 -0.87144
9.309e+09 -0.96895 -0.20771 0.00025299 -0.0016557 0.00025797 -0.0015833 -0.49691 -0.87004
9.32e+09 -0.96881 -0.20311 0.00011404 -0.0015396 0.00024214 -0.0015902 -0.49978 -0.8685
9.331e+09 -0.96904 -0.19909 0.00032936 -0.0017282 0.00026582 -0.0016811 -0.50225 -0.86632
9.342e+09 -0.96741 -0.19516 0.00033133 -0.001619 0.00026022 -0.0016387 -0.50463 -0.86549
9.353e+09 -0.96631 -0.19192 0.00026115 -0.0015194 0.00025151 -0.001498 -0.50668 -0.86437
9.364e+09 -0.9671 -0.19001 0.00026821 -0.0016713 0.0003252 -0.00165 -0.5093 -0.86212
9.375e+09 -0.96794 -0.18828 0.00028865 -0.0016647 0.00028037 -0.0016847 -0.51204 -0.86138
9.386e+09 -0.96978 -0.18502 0.0003535 -0.0018009 0.00014365 -0.0016939 -0.51462 -0.86003
9.397e+09 -0.97177 -0.18094 0.00029755 -0.0015562 0.0001888 -0.0016617 -0.51734 -0.85805
9.408e+09 -0.97247 -0.17677 0.0003516 -0.0016163 0.00035144 -0.0017001 -0.51929 -0.85574
9.419e+09 -0.9739 -0.17114 9.6577e-05 -0.0017228 0.00034343 -0.0016973 -0.52172 -0.85386
9.43e+09 -0.97241 -0.16595 0.00026386 -0.0017494 0.00030653 -0.0016561 -0.52375 -0.85316
9.441e+09 -0.97289 -0.16223 0.00018184 -0.0017264 0.00029404 -0.0018504 -0.5256 -0.85064
9.452e+09 -0.97191 -0.15926 0.00030544 -0.0015596 0.00033849 -0.0017663 -0.52791 -0.84846
9.463e+09 -0.97161 -0.15852 0.00020858 -0.001768 0.00019633 -0.0017729 -0.53084 -0.84724
9.474e+09 -0.9732 -0.15551 0.00034695 -0.0017484 0.00027828 -0.0017792 -0.53308 -0.84543
9.485e+09 -0.97499 -0.15174 0.00036952 -0.0016193 0.0003223 -0.0017958 -0.53502 -0.84345
9.496e+09 -0.97621 -0.14808 0.00025793 -0.0018202 0.00037474 -0.0017948 -0.53848 -0.84231
9.507e+09 -0.97739 -0.14408 0.00025254 -0.0016571 0.00023391 -0.0018518 -0.54207 -0.84023
9.518e+09 -0.97783 -0.13949 0.00018728 -0.0018771 0.00023389 -0.0018608 -0.54397 -0.83774
9.529e+09 -0.97776 -0.13442 0.00022862 -0.0018362 0.00034265 -0.0018694 -0.54624 -0.83581
9.54e+09 -0.97672 -0.13073 0.00024358 -0.0018428 0.00023219 -0.0018627 -0.54831 -0.83426
9.551e+09 -0.97609 -0.1263 0.0002861 -0.0018752 0.00018811 -0.0019355 -0.54969 -0.83312
9.562e+09 -0.97625 -0.12499 0.00023171 -0.0019129 0.00025373 -0.0018483 -0.55201 -0.83071
9.573e+09 -0.97726 -0.12155 0.00045468 -0.0019327 0.00030369 -0.0019234 -0.55403 -0.83032
9.584e+09 -0.97871 -0.11756 0.00013366 -0.0018631 0.00031913 -0.0019189 -0.55548 -0.82903
9.595e+09 -0.98077 -0.11323 0.00036668 -0.0018946 0.00032418 -0.0018293 -0.55846 -0.82822
9.606e+09 -0.98006 -0.10879 0.00037801 -0.0018995 0.00026083 -0.0019382 -0.56166 -0.82606
9.617e+09 -0.98021 -0.10401 0.00034922 -0.0018763 0.0003043 -0.0017684 -0.56409 -0.82438
9.628e+09 -0.98059 -0.099222 0.00025218 -0.0018209 0.00028533 -0.0019025 -0.56607 -0.82029
9.639e+09 -0.97917 -0.095404 0.00029952 -0.0018981 0.00022841 -0.0019101 -0.56776 -0.81972
9.65e+09 -0.97909 -0.092026 0.00037328 -0.0020077 0.00043876 -0.0018945 -0.5699 -0.81705
9.661e+09 -0.97775 -0.090173 0.00022611 -0.0019023 0.00026078 -0.0020414 -0.57327 -0.81634
9.672e+09 -0.97939 -0.087789 0.00013063 -0.0019696 0.00035284 -0.0019361 -0.57558 -0.81397
9.683e+09 -0.98018 -0.08488 0.00025667 -0.0019352 0.00033821 -0.0020259 -0.57855 -0.81146
9.694e+09 -0.98231 -0.080322 0.00022081 -0.0019239 0.00031531 -0.0019416 -0.58058 -0.8093
9.705e+09 -0.98256 -0.07423 0.00025993 -0.0020682 0.00035934 -0.0020271 -0.58309 -0.8087
9.716e+09 -0.98178 -0.069538 0.00044448 -0.002025 0.0002702 -0.0020717 -0.58522 -0.80646
9.727e+09 -0.98091 -0.065974 0.00026559 -0.0019978 3.8217e-05 -0.0020849 -0.58835 -0.80509
9.738e+09 -0.98099 -0.061258 0.00022605 -0.0020536 0.00021033 -0.0020606 -0.59006 -0.80206
9.749e+09 -0.97926 -0.058397 0.00023306 -0.0021971 0.00016063 -0.002131 -0.59193 -0.80077
9.76e+09 -0.97835 -0.055646 0.00027448 -0.0020184 0.00022706 -0.001973 -0.59443 -0.79947
9.771e+09 -0.97987 -0.052228 0.00025833 -0.0020288 0.0003531 -0.0019579 -0.59706 -0.79734
9.782e+09 -0.98059 -0.049306 0.00030574 -0.0022405 0.00015916 -0.0021211 -0.59962 -0.79582
9.793e+09 -0.98265 -0.044981 0.00031214 -0.0020778 0.0002612 -0.002173 -0.60129 -0.794
9.804e+09 -0.98313 -0.039595 3.5915e-05 -0.0022259 0.00025603 -0.0021033 -0.60326 -0.79061
9.815e+09 -0.98308 -0.034805 0.0002039 -0.0021092 0.00020265 -0.0020629 -0.60637 -0.78902
9.826e+09 -0.98326 -0.030267 0.00025607 -0.0021258 0.0001571 -0.0021412 -0.60945 -0.78742
9.837e+09 -0.98218 -0.026114 7.4278e-05 -0.0022557 0.0002352 -0.0020747 -0.61098 -0.78408
9.848e+09 -0.98022 -0.022722 0.00025404 -0.0021161 0.00017107 -0.0021234 -0.61267 -0.78243
9.859e+09 -0.98064 -0.020369 0.00015899 -0.0020072 0.00036309 -0.0021275 -0.6136 -0.7804
9.87e+09 -0.98042 -0.0167 0.00028409 -0.0022871 0.00013205 -0.0023225 -0.61573 -0.77889
9.881e+09 -0.98108 -0.012762 0.00019998 -0.002215 0.00020209 -0.0022486 -0.62001 -0.77837
9.892e+09 -0.98253 -0.0092091 0.00024809 -0.0021595 0.00023137 -0.0021815 -0.62273 -0.7759
9.903e+09 -0.98306 -0.003564 0.00010868 -0.002187 0.00027029 -0.0023324 -0.62535 -0.77392
9.914e+09 -0.98218 0.0021707 0.00026336 -0.0022991 0.00021099 -0.0022609 -0.62721 -0.77095
9.925e+09 -0.98005 0.0057332 0.0001952 -0.0021512 0.00015773 -0.0022863 -0.63033 -0.76956
9.936e+09 -0.97956 0.0095606 0.00010347 -0.0022663 0.00018609 -0.0021671 -0.63103 -0.76744
9.947e+09 -0.97858 0.012837 8.6119e-05 -0.0023799 0.00015812 -0.0021451 -0.63327 -0.76441
9.958e+09 -0.97859 0.015395 0.00027976 -0.0023844 0.00019169 -0.0023742 -0.63681 -0.76219
9.969e+09 -0.98063 0.019418 6.8981e-05 -0.0023272 9.269e-05 -0.0023521 -0.63779 -0.76048
9.98e+09 -0.98172 0.023097 0.00021013 -0.0023725 0.00014951 -0.0023502 -0.6403 -0.75875
9.991e+09 -0.98184 0.028012 0.00015148 -0.0023925 0.00016964 -0.0026595 -0.64222 -0.75719
1.0002e+10 -0.98207 0.032859 0.00036356 -0.0023489 0.00024724 -0.0024399 -0.64492 -0.75384
1.0013e+10 -0.98152 0.03824 0.00025753 -0.00249 0.00019195 -0.0024938 -0.64675 -0.75061
1.0024e+10 -0.98151 0.043093 0.00010385 -0.0024445 0.00023309 -0.0025453 -0.64898 -0.74873
1.0035e+10 -0.97902 0.04725 0.00016369 -0.0024336 0.00031263 -0.0024749 -0.65045 -0.74624
1.0046e+10 -0.97734 0.050862 0.00014632 -0.002626 3.3875e-05 -0.0025081 -0.65319 -0.74546
1.0057e+10 -0.9779 0.05336 0.00012385 -0.0023799 0.00020374 -0.0025586 -0.65483 -0.74237
1.0068e+10 -0.97802 0.056296 -7.7948e-06 -0.0024758 -0.0001009 -0.0023737 -0.658 -0.74068
1.0079e+10 -0.97832 0.060619 0.0001308 -0.0025564 9.7303e-05 -0.0025895 -0.66056 -0.73878
1.009e+10 -0.9801 0.065197 0.00022386 -0.0025513 -2.2062e-05 -0.0024075 -0.66309 -0.73643
1.0101e+10 -0.97895 0.070082 0.00019855 -0.0024547 0.00017443 -0.0027014 -0.66549 -0.73422
1.0112e+10 -0.97898 0.076723 0.00020943 -0.0026082 1.5767e-06 -0.0026953 -0.66651 -0.73162
1.0123e+10 -0.97769 0.081931 0.00011902 -0.002594 7.0771e-05 -0.002395 -0.66796 -0.72875
1.0134e+10 -0.97497 0.086791 0.00033523 -0.0026504 -2.654e-05 -0.0026344 -0.6688 -0.72712
1.0145e+10 -0.97371 0.090061 0.0002322 -0.0026502 -9.0116e-05 -0.0024842 -0.67115 -0.72677
1.0156e+10 -0.97315 0.091946 7.0956e-05 -0.002841 4.6058e-05 -0.0025638 -0.67527 -0.72533
1.0167e+10 -0.97394 0.094985 7.2881e-05 -0.0025149 4.1887e-05 -0.0025723 -0.67854 -0.72209
1.0178e+10 -0.97456 0.099153 0.00016519 -0.0028367 0.00028185 -0.0028136 -0.68081 -0.71874
1.0189e+10 -0.97636 0.10444 8.299e-05 -0.0026531 0.00019674 -0.0026282 -0.68195 -0.7152
1.02e+10 -0.97634 0.10961 7.5122e-05 -0.0027503 6.8518e-05 -0.0026305 -0.68395 -0.71149
1.0211e+10 -0.97499 0.11566 8.0423e-05 -0.0026481 7.8517e-05 -0.0026816 -0.68484 -0.71062
1.0222e+10 -0.97253 0.12046 0.00016668 -0.0028001 0.00021011 -0.0027509 -0.68722 -0.70944
1.0233e+10 -0.97013 0.12372 0.00015958 -0.0028024 2.1045e-05 -0.0027802 -0.6904 -0.70677
1.0244e+10 -0.97109 0.12667 3.6906e-05 -0.0028151 0.00016556 -0.0027701 -0.69275 -0.70396
1.0255e+10 -0.96973 0.12988 -9.0751e-05 -0.0029425 6.6117e-05 -0.002811 -0.69486 -0.70159
1.0266e+10 -0.97055 0.13379 9.9546e-05 -0.0028737 0.0001571 -0.0029476 -0.69777 -0.70002
1.0277e+10 -0.97071 0.13859 -0.00019325 -0.0027578 3.6313e-05 -0.0030404 -0.69989 -0.69693
1.0288e+10 -0.97065 0.14423 0.00012088 -0.0027674 -7.001e-06 -0.0028864 -0.70236 -0.69472
1.0299e+10 -0.9691 0.15061 5.1539e-05 -0.0029834 6.936e-05 -0.0027377 -0.70326 -0.69216
1.031e+10 -0.9688 0.15558 4.914e-06 -0.0031562 0.00024207 -0.0027955 -0.70534 -0.68964
1.0321e+10 -0.96571 0.1607 3.0437e-06 -0.0029488 -4.2738e-05 -0.0029097 -0.7068 -0.6881
1.0332e+10 -0.96386 0.16453 -2.9341e-05 -0.0031198 7.4968e-05 -0.002924 -0.71029 -0.68606
1.0343e+10 -0.96319 0.16705 4.9998e-05 -0.0030964 4.3521e-05 -0.0030332 -0.71201 -0.68223
1.0354e+10 -0.96251 0.16914 7.3838e-06 -0.0030964 -0.00018888 -0.0030129 -0.71471 -0.67954
1.0365e+10 -0.96439 0.17295 -6.365e-05 -0.00311 -0.00014285 -0.0029806 -0.71688 -0.67656
1.0376e+10 -0.96494 0.17857 -1.7955e-05 -0.0032073 -7.8417e-05 -0.0031582 -0.71921 -0.67405
1.0387e+10 -0.96455 0.18456 -0.00015496 -0.0029348 -8.4353e-05 -0.0030644 -0.72034 -0.67091
1.0398e+10 -0.96397 0.19061 7.0847e-05 -0.0032774 -0.00013784 -0.0032177 -0.72247 -0.66766
1.0409e+10 -0.96098 0.19671 -8.6968e-05 -0.0031105 -0.0001843 -0.003217 -0.72249 -0.66604
1.042e+10 -0.9585 0.20075 -9.8936e-05 -0.0031955 -0.0001265 -0.0032679 -0.72575 -0.66529
