!Agilent Technologies,N5247A,US51370446,A.10.00.00
!Agilent N5247A: A.10.00.00
!Date: Tuesday, October 16, 2018 05:04:15
!Correction: S11(Full 2 Port(1,2)) 
!S21(Full 2 Port(1,2)) 
!S12(Full 2 Port(1,2)) 
!S22(Full 2 Port(1,2)) 
!S2P File: Measurements: S11, S21, S12, S22:
# Hz S  RI   R 50
8000000000 -0.0090421718 0.016489882 -0.89102352 -0.29149887 -0.89074665 -0.29201818 0.026196189 0.04017213
8011000000 -0.0089964569 0.018114515 -0.89433384 -0.28023821 -0.89439595 -0.28089371 0.026597392 0.040344168
8022000000 -0.0087529169 0.019399414 -0.89869618 -0.26914868 -0.89858574 -0.26988357 0.026921744 0.040991619
8033000000 -0.0083512319 0.021914629 -0.9019134 -0.25790364 -0.90072328 -0.25849885 0.027741211 0.040978841
8044000000 -0.0089943018 0.022005364 -0.90433937 -0.24645773 -0.90468258 -0.24744417 0.028251844 0.041741051
8055000000 -0.0075820908 0.022388531 -0.9078089 -0.23504856 -0.90770584 -0.23596568 0.028458208 0.042411882
8066000000 -0.0084302574 0.023795642 -0.91029155 -0.22378559 -0.91050613 -0.22439487 0.029522244 0.04261307
8077000000 -0.0086710118 0.024262954 -0.91329241 -0.21184103 -0.91258621 -0.21280281 0.029806804 0.04297499
8088000000 -0.0082146544 0.025141295 -0.91532397 -0.20071697 -0.9160676 -0.20165017 0.030720348 0.0435578
8099000000 -0.0088470103 0.026188819 -0.91791922 -0.18943384 -0.9178552 -0.19008328 0.030616788 0.043248303
8110000000 -0.0090390481 0.027484905 -0.91956508 -0.17798322 -0.92022425 -0.17854255 0.031097082 0.043328028
8121000000 -0.0083945133 0.02862468 -0.92155898 -0.16640767 -0.92256594 -0.16758427 0.030949377 0.043948222
8132000000 -0.0080038188 0.030211154 -0.92404938 -0.15541378 -0.92428929 -0.15594089 0.030948568 0.044373278
8143000000 -0.0075596888 0.030469326 -0.92612445 -0.14403324 -0.9260934 -0.1440938 0.031474411 0.044631884
8154000000 -0.0069761467 0.030947773 -0.92764544 -0.13236254 -0.92795604 -0.13272418 0.031410739 0.045105901
8165000000 -0.0058899163 0.030774936 -0.93017489 -0.12057449 -0.92913485 -0.12047663 0.031926855 0.045146219
8176000000 -0.0070741558 0.03208622 -0.93181622 -0.10895436 -0.929829 -0.10892616 0.03272346 0.045142699
8187000000 -0.00671985 0.033282701 -0.9323855 -0.096538953 -0.93157053 -0.098061815 0.033056684 0.045948844
8198000000 -0.0063082175 0.03420734 -0.93396986 -0.084499642 -0.93233317 -0.086055748 0.033547934 0.045584958
8209000000 -0.0051981248 0.035196841 -0.93461263 -0.072832771 -0.9333806 -0.07436347 0.033858482 0.045582749
8220000000 -0.0049275327 0.036668386 -0.93464833 -0.061156902 -0.93510842 -0.062647611 0.035667706 0.045714222
8231000000 -0.0049892347 0.037227366 -0.9355458 -0.050192047 -0.935202 -0.050578833 0.035081211 0.046000544
8242000000 -0.0042138449 0.038677368 -0.93553734 -0.038030162 -0.93504095 -0.039379872 0.035872903 0.046348207
8253000000 -0.0039100568 0.039753109 -0.93521965 -0.026737841 -0.93590099 -0.027384076 0.036909666 0.046741564
8264000000 -0.0027292103 0.040677071 -0.93639201 -0.015097224 -0.93597537 -0.015872249 0.037366271 0.047204744
8275000000 -0.0025533652 0.041433897 -0.93641448 -0.0039333915 -0.93580496 -0.0041633807 0.037948687 0.047293413
8286000000 -0.0018251413 0.042013165 -0.93584079 0.0084233722 -0.93664449 0.007436669 0.038635205 0.047830191
8297000000 -0.0016040494 0.042900562 -0.93612903 0.020095373 -0.93636358 0.019255409 0.038174544 0.048312154
8308000000 -0.0011997818 0.043852661 -0.93564993 0.031917039 -0.93593442 0.030727416 0.038477391 0.048301604
8319000000 -0.00019479774 0.044482589 -0.93538409 0.04391101 -0.93464637 0.042626042 0.039210357 0.048454162
8330000000 0.00077527855 0.045079667 -0.93452585 0.05547414 -0.93408412 0.05495951 0.039924402 0.048674993
8341000000 0.0014738577 0.046220392 -0.93335283 0.066873454 -0.93393606 0.066449553 0.040247034 0.048730839
8352000000 0.002424137 0.046232898 -0.93220288 0.078466855 -0.93230993 0.077908717 0.041180819 0.048469555
8363000000 0.0032655564 0.046641972 -0.93125951 0.090427995 -0.93202883 0.089230016 0.040994838 0.048181102
8374000000 0.0035966618 0.047570132 -0.93007255 0.10141399 -0.92949158 0.10102271 0.041845847 0.04869673
8385000000 0.0038547001 0.048530798 -0.92835468 0.11315662 -0.92922401 0.11221755 0.042350873 0.049501948
8396000000 0.0043820906 0.050097257 -0.92658287 0.12446021 -0.92714626 0.12402452 0.043410212 0.049141075
8407000000 0.0052762241 0.050617166 -0.92602223 0.13622023 -0.92552143 0.13520373 0.045480013 0.048987143
8418000000 0.0057644127 0.05185739 -0.9233374 0.14770718 -0.92380089 0.14688087 0.045008294 0.048500199
8429000000 0.0063741384 0.052790124 -0.92257583 0.15847397 -0.92128813 0.15885074 0.045077525 0.048813276
8440000000 0.0071554845 0.052816823 -0.91936445 0.17050007 -0.91973537 0.17018758 0.046708375 0.0493352
8451000000 0.0082544899 0.054226968 -0.918172 0.18213883 -0.91717666 0.1816186 0.046143904 0.049468145
8462000000 0.0090645878 0.054794457 -0.91509569 0.1931732 -0.91457254 0.19268738 0.047356062 0.049770892
8473000000 0.0096341819 0.054273233 -0.91342407 0.20531337 -0.91214061 0.20400538 0.048294321 0.050167024
8484000000 0.011036028 0.054995555 -0.91074497 0.21708345 -0.91004807 0.21520881 0.047975577 0.049695637
8495000000 0.011814537 0.05492264 -0.90699041 0.22850557 -0.90660238 0.22662777 0.048240449 0.050047431
8506000000 0.012049017 0.0554698 -0.90365183 0.23964036 -0.90395457 0.23821171 0.049101926 0.049976524
8517000000 0.013055472 0.05649475 -0.90017658 0.25064844 -0.90076709 0.24895401 0.049173806 0.049797777
8528000000 0.014062308 0.056751929 -0.89691013 0.26186997 -0.89732707 0.26032662 0.049389515 0.04969601
8539000000 0.015421813 0.057519589 -0.89367402 0.27249539 -0.8936615 0.27168882 0.050432153 0.049370222
8550000000 0.016744811 0.058076121 -0.89060956 0.28336766 -0.89050543 0.28289592 0.050612882 0.049128491
8561000000 0.017503645 0.057740226 -0.88693649 0.29384258 -0.88674831 0.29395404 0.051047072 0.048530262
8572000000 0.018072164 0.058464408 -0.88326532 0.30509827 -0.88263541 0.30506238 0.051718891 0.048831571
8583000000 0.019402331 0.059026819 -0.87948871 0.31681862 -0.87886715 0.31578216 0.052582745 0.048662234
8594000000 0.019843938 0.05935077 -0.87566793 0.32819924 -0.87513977 0.32667479 0.053777173 0.048326697
8605000000 0.020441772 0.059487246 -0.87109166 0.33918801 -0.87030041 0.33790043 0.054321904 0.048373383
8616000000 0.021757727 0.060210459 -0.86590368 0.34983659 -0.86674058 0.34845108 0.056124937 0.048016869
8627000000 0.021995446 0.061149016 -0.86134994 0.36084557 -0.86168647 0.35918024 0.056169171 0.048094489
8638000000 0.023330932 0.062448982 -0.85694891 0.37169486 -0.85745192 0.3699781 0.056983925 0.048521411
8649000000 0.024997968 0.062907994 -0.85165209 0.38154221 -0.85258561 0.38072631 0.057196066 0.048591755
8660000000 0.026164623 0.063243687 -0.84705597 0.39157408 -0.84763145 0.39108163 0.058425285 0.048649464
8671000000 0.027252331 0.06305071 -0.84257013 0.40182248 -0.84271371 0.40189585 0.05910198 0.048403226
8682000000 0.028689262 0.062295638 -0.83720022 0.41279191 -0.83786696 0.41256586 0.060188059 0.04823897
8693000000 0.029357053 0.062093604 -0.83264053 0.42294559 -0.8324573 0.42261228 0.059931166 0.048368033
8704000000 0.030217046 0.061961528 -0.82742721 0.43399045 -0.8271572 0.43332481 0.060326248 0.047999989
8715000000 0.031350359 0.062375564 -0.82171291 0.44404954 -0.8219564 0.44344687 0.060312927 0.04813439
8726000000 0.032007836 0.062710576 -0.81548613 0.45433024 -0.81601655 0.45358485 0.061113384 0.047986791
8737000000 0.033915151 0.063621238 -0.81011957 0.46495068 -0.80995095 0.46375528 0.061461002 0.047588848
8748000000 0.0351444 0.063894384 -0.80369174 0.4749501 -0.80362433 0.47375309 0.062291984 0.047285039
8759000000 0.036195751 0.06377732 -0.7975297 0.48465428 -0.7977457 0.48376459 0.062983654 0.046241719
8770000000 0.038272545 0.064289398 -0.79173994 0.49506015 -0.79193431 0.49338931 0.064235799 0.046779457
8781000000 0.038716249 0.064321533 -0.78465796 0.50438774 -0.78551584 0.50363493 0.064994253 0.046547689
8792000000 0.039362323 0.064441964 -0.77819556 0.51423585 -0.77911615 0.51311117 0.065818422 0.046286449
8803000000 0.040696334 0.064666867 -0.77159184 0.52354658 -0.77280241 0.52276695 0.067410745 0.046680544
8814000000 0.041265499 0.065073952 -0.76452583 0.53251773 -0.76611799 0.53204697 0.067613512 0.04589282
8825000000 0.042229373 0.064426124 -0.75870401 0.54205358 -0.75916135 0.54232574 0.068759702 0.045134109
8836000000 0.043850824 0.065299876 -0.75209218 0.55190659 -0.75265414 0.55107677 0.06878189 0.045444686
8847000000 0.04535225 0.064694591 -0.74501348 0.56125009 -0.74558115 0.56037074 0.069593929 0.044988669
8858000000 0.04658274 0.064587161 -0.73803771 0.57058805 -0.73821253 0.56968004 0.069394469 0.04525084
8869000000 0.047751155 0.063856818 -0.73109895 0.57978284 -0.73086673 0.57876694 0.070252277 0.045043189
8880000000 0.048353188 0.06311129 -0.72320521 0.58889306 -0.7239235 0.58809888 0.070461862 0.044823125
8891000000 0.049489167 0.062502675 -0.71567339 0.59858245 -0.71681076 0.59754956 0.071225263 0.044549465
8902000000 0.050364681 0.062543653 -0.70787561 0.60726869 -0.70900679 0.60568571 0.071245626 0.04419573
8913000000 0.05137359 0.063026264 -0.70025104 0.61619204 -0.70110857 0.61433059 0.072258636 0.043490451
8924000000 0.053554416 0.062633052 -0.69220012 0.6243732 -0.69336718 0.62301308 0.072499923 0.043208633
8935000000 0.054525115 0.062318575 -0.6839782 0.63213813 -0.68553412 0.63146514 0.072742902 0.042529095
8946000000 0.055550229 0.061804846 -0.67645764 0.63977635 -0.67759871 0.64026159 0.073551595 0.04186561
8957000000 0.05610973 0.061491728 -0.66883546 0.64885575 -0.66980505 0.64858752 0.07464996 0.041397113
8968000000 0.057650268 0.06157269 -0.66092843 0.65724325 -0.66153586 0.65721035 0.075207219 0.041132748
8979000000 0.059450481 0.061483048 -0.65250146 0.66569829 -0.65320754 0.66480887 0.076426066 0.040933356
8990000000 0.060967926 0.061259896 -0.64434689 0.67431378 -0.644871 0.67303008 0.077458873 0.0402078
9001000000 0.061310604 0.061350577 -0.63538045 0.6822632 -0.63621515 0.68113732 0.078445099 0.040001366
9012000000 0.062841468 0.060522635 -0.62728143 0.69071543 -0.6274634 0.6888693 0.079093881 0.038788654
9023000000 0.063961655 0.060315244 -0.61773413 0.69831955 -0.61936855 0.69691414 0.079652734 0.038962387
9034000000 0.064907834 0.059673373 -0.60853958 0.70530194 -0.610259 0.70450956 0.080021463 0.03878773
9045000000 0.065802626 0.059024084 -0.59961009 0.71281821 -0.6015318 0.71233743 0.080186568 0.038664687
9056000000 0.066843688 0.057791524 -0.59116358 0.72005367 -0.59197849 0.71936083 0.080449454 0.038459361
9067000000 0.067599602 0.057213683 -0.5821445 0.72729343 -0.5834319 0.72634792 0.080134094 0.038575072
9078000000 0.068238661 0.056359578 -0.57299113 0.73491848 -0.57438928 0.73391551 0.080832429 0.038565125
9089000000 0.069694407 0.055886924 -0.56402689 0.74144399 -0.56478047 0.74066943 0.081313916 0.037702054
9100000000 0.071246773 0.055165842 -0.55433667 0.74828684 -0.55537421 0.74786013 0.082194611 0.037255011
9111000000 0.071859516 0.054557469 -0.54532218 0.75543666 -0.54627389 0.75459772 0.082692862 0.035908647
9122000000 0.073725238 0.054377541 -0.53568339 0.7624979 -0.53677905 0.76156336 0.082684994 0.035132173
9133000000 0.074896969 0.054619722 -0.52582699 0.76935899 -0.52708578 0.76763278 0.084248833 0.03441589
9144000000 0.076801717 0.053447772 -0.51612139 0.77538151 -0.51778543 0.7749365 0.085321873 0.034031685
9155000000 0.077250183 0.053325519 -0.50705045 0.78273702 -0.50743866 0.78025669 0.08566498 0.033611592
9166000000 0.079027377 0.052239973 -0.49669772 0.78838927 -0.49787584 0.78669333 0.086317606 0.032607328
9177000000 0.079198115 0.051618051 -0.48622116 0.79447472 -0.48782837 0.79297888 0.087086417 0.032118287
9188000000 0.080402352 0.050470848 -0.47619402 0.80046493 -0.4783437 0.79863316 0.08754082 0.031537477
9199000000 0.080923349 0.049550731 -0.46578509 0.80592877 -0.46803907 0.80503625 0.088092662 0.031346742
9210000000 0.082141995 0.048215587 -0.45566949 0.81110197 -0.45827997 0.81108379 0.088553712 0.030638387
9221000000 0.082085781 0.047610901 -0.44586515 0.81619227 -0.4473376 0.81638247 0.08870703 0.030335724
9232000000 0.083343796 0.046944104 -0.43560481 0.82185417 -0.43764716 0.82208145 0.089410163 0.029804656
9243000000 0.084281206 0.046309613 -0.42621988 0.82754362 -0.42711306 0.82739538 0.089517452 0.029447796
9254000000 0.085331492 0.04490298 -0.41554502 0.83216125 -0.41659555 0.83268493 0.089980304 0.02872215
9265000000 0.086092234 0.043761119 -0.40585187 0.83871543 -0.40622294 0.83718497 0.089998849 0.029081913
9276000000 0.087560005 0.0424801 -0.39500034 0.8436783 -0.39574125 0.84234428 0.090639703 0.027936107
9287000000 0.08748275 0.041743703 -0.38350677 0.84849226 -0.38505322 0.84688556 0.091014266 0.027425291
9298000000 0.08916112 0.041138284 -0.37271103 0.85345143 -0.37458256 0.85124546 0.091948256 0.026190113
9309000000 0.090514354 0.040031001 -0.36154675 0.85763371 -0.36407757 0.85652786 0.092551716 0.025310062
9320000000 0.091104567 0.039062422 -0.3504833 0.86194885 -0.35349056 0.86102986 0.092968635 0.0243134
9331000000 0.091596961 0.038522229 -0.33975154 0.86566705 -0.34289733 0.86551756 0.093571089 0.023238344
9342000000 0.093170829 0.037770625 -0.32907867 0.86988401 -0.33187905 0.86938012 0.094130605 0.022377865
9353000000 0.093727812 0.03706589 -0.31841612 0.87344158 -0.32108736 0.87303144 0.094314113 0.02166656
9364000000 0.094733879 0.035690617 -0.30764109 0.87699056 -0.30985862 0.87768054 0.094734877 0.020527294
9375000000 0.095162414 0.034537058 -0.29718927 0.88152629 -0.29835433 0.88048029 0.095167398 0.020569658
9386000000 0.095681779 0.032955378 -0.28598297 0.88477415 -0.28785461 0.88441312 0.096010208 0.020538736
9397000000 0.09611848 0.031678203 -0.27492669 0.88850808 -0.27679765 0.88802564 0.097117648 0.019746939
9408000000 0.096320525 0.030045694 -0.2634252 0.89255297 -0.26587042 0.89137799 0.09765321 0.018907497
9419000000 0.097011857 0.029416341 -0.25235045 0.89479482 -0.25482741 0.89523858 0.097763896 0.018384747
9430000000 0.098274723 0.027770814 -0.24123093 0.89848965 -0.24362664 0.89809436 0.097641841 0.017992478
9441000000 0.098235548 0.026911896 -0.23026997 0.90170878 -0.23229136 0.90041769 0.097755916 0.017538082
9452000000 0.099033371 0.025999427 -0.21868154 0.90448761 -0.22109608 0.9035691 0.098041087 0.01649317
9463000000 0.10011373 0.024791317 -0.2070296 0.90627015 -0.21005391 0.90658128 0.098808199 0.016320048
9474000000 0.10125761 0.02327838 -0.19580582 0.90914249 -0.19860014 0.90896386 0.09856455 0.015553016
9485000000 0.10219566 0.021966891 -0.18505391 0.91107398 -0.18736865 0.9116739 0.098806866 0.014041832
9496000000 0.10248484 0.020454893 -0.17369191 0.9136076 -0.17597876 0.91341227 0.099199779 0.013350734
9507000000 0.10280092 0.019296527 -0.16259898 0.91551501 -0.16431865 0.91632664 0.099978432 0.012446663
9518000000 0.10364508 0.018561266 -0.1511876 0.91769004 -0.15292446 0.91806275 0.10068984 0.011410802
9529000000 0.10356779 0.017687334 -0.13969624 0.91964936 -0.14145769 0.91949749 0.10068104 0.010247489
9540000000 0.10440008 0.016130522 -0.12843713 0.92221516 -0.12946886 0.92197257 0.10125552 0.00857767
9551000000 0.10559358 0.014700976 -0.11625773 0.92383409 -0.11807746 0.92328215 0.10091526 0.0085542547
9562000000 0.10499233 0.013785532 -0.10393984 0.92593896 -0.10639132 0.92423564 0.10186065 0.0079429522
9573000000 0.10578936 0.011450278 -0.092270054 0.92596078 -0.094239816 0.92546266 0.1025584 0.0070506753
9584000000 0.10601344 0.0099296672 -0.079962902 0.92666358 -0.08248651 0.92676842 0.1024562 0.0069878432
9595000000 0.10605907 0.0084089367 -0.068466015 0.92739809 -0.071114033 0.92717552 0.10301051 0.0063539487
9606000000 0.10608157 0.0061623887 -0.056482855 0.92714214 -0.059492406 0.92830491 0.10295267 0.0058413818
9617000000 0.10552802 0.0051671169 -0.04485473 0.92785394 -0.048229605 0.92865217 0.10364256 0.0050482508
9628000000 0.10622229 0.0044318549 -0.034399129 0.92837042 -0.03641279 0.92927545 0.10371053 0.0039983043
9639000000 0.10775947 0.0031637412 -0.022795238 0.92890865 -0.024520302 0.92954785 0.10352965 0.0028053753
9650000000 0.10762909 0.0016928411 -0.011312026 0.92881864 -0.013326441 0.92979294 0.10328828 0.0015902369
9661000000 0.1074886 -0.00028535567 -0.00010519453 0.92997694 -0.0014352971 0.9296245 0.10374373 0.0010593848
9672000000 0.10795461 -0.00095046428 0.011877647 0.92909074 0.0099633439 0.92952114 0.10358836 0.00055896584
9683000000 0.10820749 -0.0025868295 0.024021614 0.93013674 0.02185588 0.92867839 0.10445129 -0.00033305836
9694000000 0.10847667 -0.0040453644 0.035761375 0.92920655 0.033244606 0.92855495 0.10468573 -0.0020568483
9705000000 0.10877942 -0.0057982872 0.047497272 0.92775112 0.044561483 0.92829502 0.10430464 -0.0029301257
9716000000 0.10858478 -0.0074176034 0.059115749 0.92769259 0.056136008 0.927652 0.10525828 -0.003759536
9727000000 0.10836201 -0.0085740387 0.070842341 0.92596805 0.068067424 0.92696905 0.10572055 -0.0052547781
9738000000 0.10866019 -0.0096234186 0.082418047 0.92478085 0.079441987 0.92543328 0.10559633 -0.0063313837
9749000000 0.10878329 -0.011170911 0.093445122 0.92392695 0.091205254 0.92473024 0.10633191 -0.007280699
9760000000 0.10822229 -0.012559333 0.10519838 0.9231199 0.10245767 0.92390323 0.10674851 -0.0072860327
9771000000 0.10878915 -0.013973716 0.11633582 0.92228764 0.11365902 0.92214388 0.106428 -0.0077050417
9782000000 0.1087286 -0.016256494 0.12817766 0.91980404 0.12575985 0.92061985 0.10729755 -0.0079770312
9793000000 0.10873426 -0.017761935 0.13950042 0.91821539 0.13681214 0.91853207 0.10741897 -0.0086748581
9804000000 0.10815142 -0.019182336 0.15054153 0.91652775 0.14876334 0.91684508 0.10807329 -0.0092964247
9815000000 0.10801093 -0.021441653 0.16217791 0.91452974 0.15980652 0.91536397 0.1076526 -0.010934086
9826000000 0.10727502 -0.022785207 0.17369933 0.91274273 0.17047019 0.91232723 0.10750421 -0.012081814
9837000000 0.10762461 -0.023973966 0.18536679 0.91055208 0.18243223 0.91090178 0.10666745 -0.013590966
9848000000 0.10769959 -0.025270911 0.19792831 0.90880108 0.19386451 0.90868038 0.10704586 -0.013788364
9859000000 0.10781556 -0.026280658 0.20900306 0.90544361 0.20568925 0.90624344 0.10681146 -0.01481949
9870000000 0.10835286 -0.028151052 0.21982893 0.90312135 0.21703936 0.90333116 0.10670222 -0.015524438
9881000000 0.10739546 -0.029649949 0.23139495 0.89905417 0.22789617 0.9003163 0.10725578 -0.016177002
9892000000 0.1070056 -0.0309944 0.24283314 0.89559984 0.23933618 0.89752489 0.10723641 -0.018076079
9903000000 0.1067091 -0.03242318 0.2531743 0.89214092 0.25044611 0.89395916 0.10729094 -0.019218529
9914000000 0.10626683 -0.033228382 0.26394743 0.88932514 0.26151997 0.89111483 0.10729965 -0.019971209
9925000000 0.10578036 -0.035398353 0.27437839 0.88571471 0.27283683 0.88830233 0.1080413 -0.021430828
9936000000 0.10536987 -0.037051592 0.28577319 0.88222224 0.28334239 0.88472861 0.1080045 -0.022208946
9947000000 0.10434467 -0.038598474 0.29623771 0.87979937 0.29469472 0.88082415 0.10772143 -0.023151141
9958000000 0.10346051 -0.039370649 0.30749112 0.87630373 0.30593547 0.87707245 0.10824226 -0.023508305
9969000000 0.1037876 -0.041497685 0.31934494 0.87241119 0.3171787 0.87313676 0.10752266 -0.024197638
9980000000 0.10266232 -0.042703353 0.33051986 0.8688913 0.32781187 0.86894774 0.10773854 -0.024814557
9991000000 0.10217737 -0.044515755 0.3414281 0.86370921 0.33887747 0.86528993 0.10800891 -0.026092798
10002000000 0.10174764 -0.045240384 0.35238004 0.85928434 0.34974399 0.8602224 0.10776279 -0.026906462
10013000000 0.1009908 -0.046256617 0.36325696 0.85483533 0.35973468 0.85591221 0.10818411 -0.027962081
10024000000 0.10189006 -0.048407834 0.37370449 0.84970653 0.37037277 0.85112017 0.10718635 -0.029744133
