!Agilent Technologies,N5247A,US51370446,A.10.00.00
!Agilent N5247A: A.10.00.00
!Date: Tuesday, October 16, 2018 05:30:40
!Correction: S11(Full 2 Port(1,2)) 
!S21(Full 2 Port(1,2)) 
!S12(Full 2 Port(1,2)) 
!S22(Full 2 Port(1,2)) 
!S2P File: Measurements: S11, S21, S12, S22:
# Hz S  RI   R 50
8000000000 -0.3944591 -0.83526337 -0.00078012515 0.00069466524 -0.00057686196 0.0010048695 0.11252706 -0.93691045
8011000000 -0.40955684 -0.82918036 -0.00081171567 0.00089538982 -0.00060695299 0.00078178791 0.097425111 -0.9401052
8022000000 -0.42509717 -0.82285494 -0.00077191513 0.00091635453 -0.0006678779 0.00082037249 0.082396485 -0.94098914
8033000000 -0.44045892 -0.81332576 -0.00059344713 0.00077736203 -0.00047801776 0.00093878055 0.067175418 -0.94363463
8044000000 -0.45474225 -0.80415249 -0.00059140299 0.00098128826 -0.00074711867 0.00099758175 0.052964676 -0.94385302
8055000000 -0.46763834 -0.79629022 -0.00062573724 0.00085993309 -0.00064061553 0.00069538847 0.036864739 -0.9447028
8066000000 -0.47939444 -0.78540754 -0.00061299402 0.00081357284 -0.00062834146 0.000922537 0.023064857 -0.94461781
8077000000 -0.49163225 -0.77829808 -0.00061110198 0.00088578247 -0.00062465435 0.00094780017 0.0077622621 -0.9441449
8088000000 -0.50378942 -0.77065122 -0.00058619207 0.00091242307 -0.00054887688 0.00085118826 -0.0074872361 -0.94399863
8099000000 -0.51662964 -0.76320589 -0.0003837804 0.00082285533 -0.00056045025 0.00095764868 -0.022008494 -0.94362879
8110000000 -0.53085858 -0.75491935 -0.0004097129 0.000949423 -0.00051894394 0.00089876162 -0.036990177 -0.94294161
8121000000 -0.54385549 -0.74601007 -0.00069028552 0.00094720983 -0.00037459616 0.00096891687 -0.052563109 -0.94237739
8132000000 -0.55787605 -0.73580581 -0.00054613757 0.00094865542 -0.00063071901 0.00099483994 -0.067286082 -0.94163918
8143000000 -0.56966782 -0.72452432 -0.00065227994 0.00092259445 -0.00048178443 0.00090638123 -0.082642302 -0.94047338
8154000000 -0.58128095 -0.71393174 -0.00050802005 0.0010445813 -0.00061850389 0.0010362043 -0.097414605 -0.93921572
8165000000 -0.59169835 -0.7040205 -0.00049101334 0.00094523071 -0.0005310736 0.000986406 -0.1127881 -0.93610728
8176000000 -0.60299695 -0.69462502 -0.0004982641 0.00092371815 -0.00055046234 0.00094770838 -0.12684684 -0.93489236
8187000000 -0.61561441 -0.68607146 -0.00030402135 0.00094866916 -0.00029537006 0.00096128834 -0.14165264 -0.93210715
8198000000 -0.62720621 -0.67531115 -0.00053631159 0.0010055053 -0.00048035872 0.00083485688 -0.15600115 -0.93049753
8209000000 -0.64030802 -0.66509777 -0.00039499946 0.0010033064 -0.0005763357 0.0009185886 -0.17168568 -0.92791367
8220000000 -0.65223539 -0.65208393 -0.00044465947 0.00098961859 -0.00047372738 0.00091942522 -0.18557458 -0.92564595
8231000000 -0.66346365 -0.63988143 -0.00035428663 0.00108361 -0.00051993603 0.0009587612 -0.19966146 -0.92210084
8242000000 -0.67359006 -0.62597722 -0.00051573484 0.00091926579 -0.00040678552 0.0011279053 -0.21478449 -0.918585
8253000000 -0.68321216 -0.61350191 -0.00034543671 0.0012401615 -0.00050088373 0.0008982548 -0.22971308 -0.91546237
8264000000 -0.69206464 -0.60246986 -0.00044975875 0.0011386831 -0.00042061353 0.0011479211 -0.24469191 -0.91140395
8275000000 -0.70085579 -0.59126633 -0.00035550029 0.0012528718 -0.00043482686 0.0010918288 -0.25932226 -0.90701455
8286000000 -0.71137542 -0.58094794 -0.00035230321 0.0012457402 -0.00048514659 0.0011035939 -0.27372736 -0.90198654
8297000000 -0.72277582 -0.57032895 -0.00033817985 0.0010349565 -0.00032366489 0.0011658791 -0.28831682 -0.89714485
8308000000 -0.73349237 -0.55819583 -0.00029347712 0.0010694701 -0.0003100975 0.0010722013 -0.30226323 -0.89191318
8319000000 -0.74336189 -0.54380107 -0.00023655979 0.0011140321 -0.00024538569 0.0011712984 -0.31643039 -0.88628292
8330000000 -0.75272226 -0.52943778 -0.00033650515 0.001184332 -0.00030275912 0.0010751057 -0.33142033 -0.88085371
8341000000 -0.76061404 -0.51525497 -0.00023792386 0.0011260465 -0.00030232983 0.0012366944 -0.34569693 -0.87639445
8352000000 -0.76747084 -0.50077134 -0.00036436052 0.0012572671 -0.0002268798 0.0011486363 -0.35933453 -0.86989921
8363000000 -0.77441919 -0.4888536 -0.00034126529 0.0011886633 -0.00035063608 0.0010938966 -0.37311408 -0.8647756
8374000000 -0.78204018 -0.47642273 -0.00032780983 0.0012078184 -0.00024017772 0.0011654178 -0.38680434 -0.85835397
8385000000 -0.79032421 -0.46487004 -0.00017801271 0.0012334352 -0.00025392868 0.0011983664 -0.40035126 -0.85307539
8396000000 -0.79866987 -0.45170593 -0.0002923921 0.0013445889 -0.00029203377 0.001207207 -0.41371137 -0.84628171
8407000000 -0.80727375 -0.43682426 -0.00024734426 0.0011684957 -0.00034071054 0.001129173 -0.42663661 -0.83918965
8418000000 -0.81537241 -0.42237398 -0.00025056093 0.0013332133 -0.00023943363 0.0011511027 -0.44080192 -0.83281726
8429000000 -0.82366163 -0.40776855 -0.00023176054 0.001271724 -0.00028497205 0.0011511475 -0.45337316 -0.82551557
8440000000 -0.82941675 -0.39120212 -0.00021312542 0.0011951874 -0.00021662637 0.0012988233 -0.46631858 -0.81734234
8451000000 -0.83480197 -0.37765378 -0.00010193764 0.0013045368 -0.00017209077 0.001354101 -0.4797906 -0.81006581
8462000000 -0.84036011 -0.36375827 -0.00020089888 0.0012450357 -0.00017632029 0.0012281379 -0.4926632 -0.80177003
8473000000 -0.84625435 -0.35051998 -0.00016638098 0.0011904282 -6.2637802e-005 0.0012793366 -0.50518262 -0.79281986
8484000000 -0.85224003 -0.33752769 2.6415624e-005 0.0013760241 -6.1921492e-005 0.0012630967 -0.51900971 -0.78406769
8495000000 -0.85944766 -0.32353029 0.00014267265 0.0013181361 7.8683106e-006 0.0012935676 -0.5316866 -0.77502984
8506000000 -0.86484474 -0.30775651 3.648573e-005 0.0013263876 -3.0103791e-005 0.001341076 -0.54372174 -0.7663855
8517000000 -0.86986148 -0.29203099 -8.6695138e-005 0.0012829846 -0.00010908378 0.0013016638 -0.55642003 -0.75786906
8528000000 -0.87429035 -0.27610901 0.00010720107 0.0015481812 3.4221863e-005 0.0012718263 -0.56847596 -0.74879444
8539000000 -0.87744087 -0.26030523 4.6829202e-005 0.0012312694 -1.6749642e-005 0.0013099837 -0.58051234 -0.73988748
8550000000 -0.88054293 -0.24557732 3.292186e-005 0.0013345734 -7.2155158e-006 0.0012346739 -0.59232682 -0.73067045
8561000000 -0.88300645 -0.23166797 5.4076889e-005 0.0012636587 7.1441631e-005 0.0012621668 -0.60372359 -0.72099924
8572000000 -0.88747525 -0.21726868 4.3379117e-005 0.0012971823 4.3411394e-005 0.0012519116 -0.61455643 -0.71133077
8583000000 -0.8918407 -0.20302153 9.7968659e-005 0.0011768136 4.3460546e-005 0.0013310356 -0.62638867 -0.70118701
8594000000 -0.8965252 -0.18734071 3.6604906e-005 0.0012920104 0.00020231362 0.0012787663 -0.63670266 -0.6915555
8605000000 -0.90097362 -0.17084007 0.00014567326 0.0012796499 0.00026737267 0.0012403025 -0.64739799 -0.68054986
8616000000 -0.9037568 -0.15330638 0.00018225051 0.0012927775 0.00011763036 0.0013554622 -0.65785581 -0.66945404
8627000000 -0.90577185 -0.13662361 0.00024166211 0.0013020594 0.0002236321 0.001309959 -0.6683808 -0.65944302
8638000000 -0.90597671 -0.12063622 9.8803561e-005 0.0012956688 0.00025123733 0.0013252628 -0.67957795 -0.64812404
8649000000 -0.90752482 -0.10622725 0.00024626922 0.0014362934 0.0002485982 0.0012898359 -0.69046444 -0.6367203
8660000000 -0.90733087 -0.091528654 0.00026026496 0.0012799631 0.00023141969 0.001259912 -0.70119548 -0.62548047
8671000000 -0.90863347 -0.078088164 0.00039260092 0.0012208157 0.00024876933 0.0014634355 -0.71152335 -0.61362153
8682000000 -0.91146868 -0.063551851 0.00018361266 0.0013690597 0.00040145384 0.0013334944 -0.72098297 -0.60078007
8693000000 -0.91454697 -0.048511609 0.00038037935 0.0011693899 0.0002941516 0.0014627465 -0.73077208 -0.58842146
8704000000 -0.91619277 -0.03170624 0.00032355348 0.001359954 0.00020302764 0.0013126013 -0.73949641 -0.57639498
8715000000 -0.91663051 -0.015205372 0.00031425041 0.0012518987 0.00039408632 0.0012594763 -0.74871624 -0.56396055
8726000000 -0.91632003 0.0019781357 0.00040640813 0.0013155391 0.0004858358 0.0014084528 -0.75754482 -0.55215698
8737000000 -0.91412491 0.01849021 0.00030544327 0.0014010386 0.0004120401 0.0012692229 -0.7672708 -0.54031539
8748000000 -0.91221023 0.033509806 0.00041615855 0.0013836583 0.0003749764 0.0013547804 -0.77575618 -0.52781779
8759000000 -0.91056651 0.048431281 0.00055575965 0.0014363291 0.00035996278 0.0012913257 -0.78383505 -0.5159722
8770000000 -0.90978557 0.063123785 0.00047798778 0.0014442791 0.00049595442 0.0013037322 -0.79317522 -0.50248462
8781000000 -0.90908074 0.078108214 0.0004899794 0.0012076958 0.00041903302 0.0014445079 -0.80126071 -0.48982847
8792000000 -0.909006 0.09335456 0.00061515719 0.0013422052 0.0003422368 0.0014142535 -0.80859888 -0.47598255
8803000000 -0.90801859 0.11013538 0.00053095579 0.0012880353 0.00062638673 0.0014288506 -0.81610358 -0.46253833
8814000000 -0.905999 0.12635352 0.00051043899 0.0013948899 0.00044951 0.0013715185 -0.8227393 -0.44932577
8825000000 -0.90250564 0.14256455 0.00057024375 0.0012260347 0.00064636918 0.0014020205 -0.82970512 -0.43524057
8836000000 -0.90014923 0.15798649 0.00066615903 0.0013564333 0.00064950984 0.0011599361 -0.83669162 -0.42179278
8847000000 -0.89553928 0.17274785 0.00059075444 0.0012594057 0.0005013831 0.0012862543 -0.84353292 -0.40727094
8858000000 -0.89230227 0.18660763 0.00054137618 0.001288805 0.00064614014 0.0012447167 -0.85030961 -0.3937844
8869000000 -0.88988364 0.20027694 0.00075156108 0.0011057099 0.00050588691 0.0012922215 -0.85662526 -0.37898475
8880000000 -0.88750094 0.21461903 0.00067442434 0.0012335202 0.00059988408 0.0012386215 -0.86271435 -0.36496395
8891000000 -0.88486469 0.23033687 0.00059827132 0.0012721183 0.0006255653 0.001371739 -0.86843413 -0.3498635
8902000000 -0.88152593 0.24620649 0.00072598289 0.0013456035 0.00071938953 0.0013498287 -0.87453109 -0.3363353
8913000000 -0.87662286 0.26250771 0.00076859852 0.0012249522 0.00058826851 0.0011987741 -0.87965101 -0.32319161
8924000000 -0.87122709 0.27865705 0.00081417942 0.0011835811 0.00084000902 0.0011185411 -0.88449413 -0.30837387
8935000000 -0.86459607 0.2929278 0.00087418989 0.0010699107 0.00082223135 0.0012619765 -0.88929749 -0.29461065
8946000000 -0.85805154 0.30659622 0.00066952227 0.001195253 0.00080826314 0.0012175447 -0.89370459 -0.28005326
8957000000 -0.852404 0.31960431 0.00075000565 0.0011975699 0.0008409291 0.0012256412 -0.89857197 -0.26566523
8968000000 -0.84759557 0.33332694 0.00085322233 0.0010811199 0.0008012547 0.0012277385 -0.9023208 -0.25039279
8979000000 -0.84335214 0.34714442 0.0008792255 0.0011808224 0.00084004377 0.0012347392 -0.90598291 -0.2354814
8990000000 -0.83876014 0.36226252 0.0008503687 0.0011485019 0.00078251644 0.0011748465 -0.91006839 -0.21965335
9001000000 -0.8335306 0.37859315 0.0007331511 0.0011391207 0.00091413915 0.0011132599 -0.91341925 -0.20537692
9012000000 -0.8264758 0.39355779 0.00088843779 0.0012935458 0.00095225743 0.0010832726 -0.91593891 -0.18942134
9023000000 -0.81824684 0.40897536 0.00094432861 0.0010854427 0.00094335654 0.001117924 -0.9191612 -0.17410326
9034000000 -0.80899763 0.42242128 0.00094011566 0.0012149576 0.0010586951 0.0011559919 -0.92204708 -0.15937248
9045000000 -0.80131322 0.43469334 0.00097830873 0.00099295017 0.00093137764 0.0011741105 -0.92428368 -0.14357148
9056000000 -0.79362369 0.44616312 0.0010071181 0.001002838 0.00099071057 0.0011200997 -0.92662948 -0.1280213
9067000000 -0.78734779 0.45760489 0.0010350549 0.00099140382 0.0011285655 0.0011529394 -0.92890108 -0.11345308
9078000000 -0.78185481 0.47090933 0.0010485563 0.0011716669 0.0010246428 0.0011368596 -0.93009996 -0.098142564
9089000000 -0.77467328 0.48442796 0.0010975754 0.001198395 0.0010459846 0.0012863179 -0.93192631 -0.082526624
9100000000 -0.76661968 0.49920437 0.0010222013 0.0011110122 0.001070761 0.0010965392 -0.93349719 -0.066623673
9111000000 -0.75751472 0.51306945 0.0011205759 0.0011134068 0.0011766694 0.0010296404 -0.93388075 -0.052476227
9122000000 -0.74757564 0.52699667 0.0012762211 0.0012289474 0.00089798478 0.0010926686 -0.93500006 -0.036405936
9133000000 -0.73666859 0.53973985 0.0011071727 0.0011195889 0.0012248474 0.0010332366 -0.9357084 -0.022015074
9144000000 -0.72591901 0.55165303 0.0010349815 0.0010951614 0.0011164112 0.0011661126 -0.93638611 -0.0063323211
9155000000 -0.71684635 0.56228203 0.0010748402 0.0010460679 0.0012877546 0.0012009322 -0.93590492 0.0085521461
9166000000 -0.70769876 0.57318336 0.0013365867 0.00097846508 0.0012394981 0.0010988613 -0.93557519 0.024493458
9177000000 -0.69960743 0.58534712 0.0012177966 0.00095453288 0.0012894251 0.00094635505 -0.934542 0.040339343
9188000000 -0.6908021 0.59773117 0.0011523739 0.00093170139 0.001178594 0.0010587022 -0.93263954 0.055815864
9199000000 -0.68101084 0.61034793 0.0012361777 0.0010117263 0.0011667962 0.0010810643 -0.93142629 0.071222186
9210000000 -0.66987181 0.62194133 0.0012014428 0.0010071548 0.0012879438 0.00098248594 -0.93020046 0.087499373
9221000000 -0.65842175 0.63321584 0.0013051173 0.0011046944 0.001344036 0.00095514755 -0.92845255 0.10280663
9232000000 -0.64696801 0.64380759 0.0013194825 0.0010094504 0.0012497021 0.00097512116 -0.92691374 0.11788043
9243000000 -0.63595116 0.653467 0.0012770953 0.001034101 0.0013152667 0.00097459834 -0.92509317 0.13345322
9254000000 -0.62502575 0.66263711 0.0013249018 0.0009572187 0.0014593911 0.00091610872 -0.9222638 0.14852253
9265000000 -0.61565948 0.67304087 0.0014571927 0.00098101539 0.0013664392 0.00090864493 -0.92016053 0.16326179
9276000000 -0.60509837 0.68345422 0.001421819 0.00097839092 0.0013394008 0.00093939604 -0.91806 0.17855166
9287000000 -0.59373575 0.69461155 0.0013463126 0.0010491034 0.0014928483 0.00089919282 -0.91409194 0.19320482
9298000000 -0.58199692 0.70641482 0.0014172271 0.00092252111 0.00139521 0.00082937418 -0.91103971 0.20862859
9309000000 -0.56846714 0.71736604 0.0015165332 0.00086904428 0.0014416353 0.00085092342 -0.90744644 0.22388126
9320000000 -0.55494398 0.72671735 0.0014642286 0.00067087833 0.0014648681 0.0008197141 -0.90354961 0.23833226
9331000000 -0.54153198 0.73506653 0.0015801683 0.00092943589 0.0015551612 0.00085646525 -0.89904207 0.25287104
9342000000 -0.52870244 0.7428723 0.001486309 0.00087347231 0.0015281878 0.00081497827 -0.89512759 0.26801017
9353000000 -0.516294 0.7491129 0.001419996 0.00075338315 0.0014006371 0.00074127282 -0.89053267 0.28191856
9364000000 -0.50542551 0.75723284 0.0015782323 0.0007883723 0.0015398907 0.00084272964 -0.88502222 0.29749379
9375000000 -0.4946633 0.76617759 0.0015768529 0.00078704389 0.0015970754 0.0007867263 -0.88001835 0.31200206
9386000000 -0.48340386 0.77608806 0.0017050535 0.00086906523 0.0016568897 0.00063157501 -0.87383115 0.32677644
9397000000 -0.47008866 0.78615505 0.0014861544 0.00072213268 0.0016207793 0.00064471498 -0.86805868 0.34165102
9408000000 -0.45564285 0.79447126 0.0015422913 0.00077112613 0.0016238847 0.0007968205 -0.86165071 0.35542688
9419000000 -0.44096965 0.80257928 0.0017214832 0.00051997101 0.001635227 0.00076865265 -0.856507 0.36978135
9430000000 -0.42674124 0.80885369 0.0017181293 0.00067321589 0.0016119654 0.00069939543 -0.85033995 0.38464507
9441000000 -0.413129 0.81476116 0.0017213998 0.00056520751 0.0018201282 0.00071086769 -0.84401131 0.3973237
9452000000 -0.39927998 0.81991661 0.0015331612 0.00063358532 0.0017353826 0.00071450562 -0.83791929 0.41176882
9463000000 -0.38714346 0.82635558 0.0017747633 0.00055224408 0.0017823454 0.00054670451 -0.83182693 0.4254038
9474000000 -0.37439948 0.83340836 0.0017381873 0.00066835782 0.0017810611 0.00060870318 -0.82478499 0.43937537
9485000000 -0.36107451 0.83975327 0.0016083256 0.00064799748 0.0017985891 0.00063328579 -0.81719667 0.45278764
9496000000 -0.34708413 0.84779972 0.0018416382 0.0005409455 0.0017965859 0.00066236884 -0.80933279 0.46627006
9507000000 -0.33145258 0.85486722 0.0016797014 0.00048937305 0.0018851112 0.00050062279 -0.8020516 0.47970113
9518000000 -0.3165693 0.86054796 0.0019228989 0.00042779956 0.0019006213 0.00047779526 -0.79282117 0.49244022
9529000000 -0.30076766 0.86500221 0.0018804462 0.00044230363 0.0019013262 0.00056804658 -0.78487408 0.50468522
9540000000 -0.28577399 0.8691358 0.0018919872 0.00043290987 0.0019130703 0.0004251255 -0.77652562 0.51812804
9551000000 -0.27228084 0.87362903 0.0019298248 0.0004545252 0.001999412 0.00036137077 -0.76690221 0.53148186
9562000000 -0.25834739 0.87806201 0.0019792696 0.00037397633 0.001906357 0.00039726749 -0.75795609 0.54337341
9573000000 -0.24432583 0.88264436 0.0019906056 0.00057793554 0.0019875595 0.00042416932 -0.74786228 0.5567596
9584000000 -0.22998238 0.88819176 0.0019381455 0.00021348451 0.0019886005 0.00041468116 -0.73830146 0.56875765
9595000000 -0.21433969 0.89310879 0.001966876 0.00043164979 0.0018987326 0.00039103505 -0.72976989 0.58132297
9606000000 -0.19851227 0.89653099 0.0019746078 0.00041481445 0.0020182075 0.00029996119 -0.71813583 0.59347647
9617000000 -0.18197002 0.89913017 0.0019542421 0.00035997841 0.001842636 0.00032035122 -0.70891732 0.6045118
9628000000 -0.16589123 0.90127975 0.0019005082 0.00023606277 0.0019875034 0.00027390884 -0.69890589 0.61632079
9639000000 -0.15158676 0.90216404 0.0019879898 0.00025841905 0.0019996655 0.000187724 -0.68986595 0.62877005
9650000000 -0.13724118 0.90298384 0.0021062989 0.00030581243 0.0019924792 0.00038338252 -0.6792348 0.63941759
9661000000 -0.12344057 0.9053582 0.0019945903 0.00013125104 0.00214042 0.00016274596 -0.66940963 0.65041035
9672000000 -0.10929967 0.90778744 0.0020595614 2.1811843e-006 0.0020401408 0.00024013575 -0.65935236 0.6614095
9683000000 -0.094049312 0.91180015 0.0020375669 0.00010629488 0.0021349154 0.00018828768 -0.64692467 0.67244577
9694000000 -0.077512182 0.9138962 0.0020214531 4.1890467e-005 0.0020469916 0.00014377349 -0.63612694 0.68298262
9705000000 -0.061300658 0.91569674 0.0021733446 3.9801194e-005 0.0021421909 0.00015433153 -0.62406665 0.69339156
9716000000 -0.044666868 0.91633797 0.0021521756 0.00020729362 0.0021781155 2.7976252e-005 -0.61166239 0.70297718
9727000000 -0.028474405 0.91586441 0.002098415 -2.6894741e-006 0.0021593445 -0.00024299738 -0.59995347 0.71284252
9738000000 -0.013255344 0.91490382 0.0021492974 -7.8662859e-005 0.0021553698 -8.8947687e-005 -0.58701688 0.72267801
9749000000 0.00065445446 0.91358 0.0022977649 -0.00012222688 0.0022197517 -0.0001804304 -0.57557356 0.73228073
9760000000 0.014571894 0.91401488 0.0021212976 -7.7422919e-005 0.0020675522 -0.00011182676 -0.56388682 0.74173009
9771000000 0.028087549 0.91530716 0.0021307215 -0.00012213741 0.0020750272 -5.4851166e-006 -0.55127734 0.75201279
9782000000 0.044001468 0.91627854 0.0023536542 -0.00014934297 0.0022032536 -0.0002687886 -0.53775549 0.76117146
9793000000 0.059488636 0.91673523 0.0021873796 -0.00013704045 0.0022736804 -0.00020320689 -0.52555496 0.76955682
9804000000 0.07685221 0.9158991 0.0022716434 -0.00048087709 0.0021986123 -0.00022429286 -0.51201874 0.77766752
9815000000 0.093077987 0.91361725 0.0021853035 -0.00031317305 0.0021399402 -0.00029747211 -0.4992193 0.78701323
9826000000 0.10922643 0.91112435 0.0022100981 -0.0002924687 0.0021988484 -0.00038849146 -0.48689669 0.79493535
9837000000 0.12436035 0.90765697 0.0022870605 -0.00053886313 0.0021493998 -0.00032102381 -0.47347149 0.80303538
9848000000 0.13944116 0.90535355 0.0021957848 -0.00035136036 0.002178916 -0.00042699068 -0.46077368 0.81080753
9859000000 0.15273573 0.90279317 0.0020525206 -0.00044042547 0.0022347954 -0.00026429817 -0.447797 0.8176133
9870000000 0.16700931 0.90103149 0.0023670653 -0.00043019981 0.0023554957 -0.00058540853 -0.43421218 0.82506877
9881000000 0.18294781 0.89946067 0.0022587816 -0.0005222839 0.0022958049 -0.00052219752 -0.42009789 0.83251935
9892000000 0.19897924 0.89668149 0.0022098839 -0.00048672379 0.0022302479 -0.0005018363 -0.4061099 0.83950001
9903000000 0.21506354 0.89285862 0.0021801209 -0.00066009338 0.0023836431 -0.00054536655 -0.39186877 0.84606308
9914000000 0.2311404 0.88879299 0.0023386548 -0.00057520135 0.0022867855 -0.00060615921 -0.3780883 0.85127461
