!Agilent Technologies,N5247A,US51370446,A.10.00.00
!Agilent N5247A: A.10.00.00
!Date: Tuesday, October 16, 2018 05:16:33
!Correction: S11(Full 2 Port(1,2)) 
!S21(Full 2 Port(1,2)) 
!S12(Full 2 Port(1,2)) 
!S22(Full 2 Port(1,2)) 
!S2P File: Measurements: S11, S21, S12, S22:
# Hz S  RI   R 50
8000000000 0.9509899 -0.062730998 2.7315713e-005 -0.00010645056 -4.9183669e-005 -0.0002053198 0.80616617 0.51238567
8011000000 0.95053786 -0.073166713 -8.1838007e-005 2.2294918e-005 4.8518184e-005 3.4945559e-005 0.81195825 0.50405759
8022000000 0.95132411 -0.083329417 -6.4666892e-005 -0.00011844585 -6.0033391e-005 -7.0780166e-005 0.8178131 0.49427578
8033000000 0.95169741 -0.094960637 -3.6643349e-005 -0.00018500228 -7.7519132e-007 -5.8974987e-005 0.82312065 0.48647651
8044000000 0.95224482 -0.10753409 3.0439935e-005 -6.3988839e-005 2.0878228e-005 1.3527507e-005 0.82779592 0.4763445
8055000000 0.9501518 -0.12036908 -1.7822267e-005 -0.00013221543 0.00028092373 -0.00014330713 0.83499789 0.46669817
8066000000 0.94897181 -0.13494487 -9.0907506e-006 -6.9674039e-005 -0.000107259 -3.2763524e-005 0.83927864 0.4564999
8077000000 0.94492197 -0.14743486 -0.00011477133 -2.5321751e-005 7.0909467e-005 -1.5820597e-005 0.84446108 0.44630516
8088000000 0.94128597 -0.15888414 -0.00015138523 4.6433888e-005 0.00021930393 -0.00018262339 0.8506127 0.43805107
8099000000 0.93770528 -0.16857582 4.8018941e-005 -4.1180687e-005 0.00023839947 -6.896483e-005 0.85509318 0.42750844
8110000000 0.93617094 -0.17901187 0.00011327981 -7.8329875e-005 -8.6297201e-005 -3.527676e-005 0.85863137 0.41778591
8121000000 0.93414432 -0.18873094 -0.00013512086 -0.00012656377 0.00019389781 -0.00011853759 0.86399293 0.40819812
8132000000 0.93385196 -0.20035385 -3.1461324e-005 9.473892e-005 -0.00013686308 -2.3811861e-005 0.86847001 0.39834303
8143000000 0.93234009 -0.21298701 0.00015839428 1.6121105e-005 4.0809897e-005 4.8719565e-005 0.87342906 0.38860777
8154000000 0.93090469 -0.22577827 -6.4895899e-006 -0.0002653921 3.5172889e-005 -6.7174275e-005 0.87645894 0.37824604
8165000000 0.92721462 -0.23967846 -0.0001121912 -4.1427124e-005 0.00011153489 -0.00010177874 0.88139355 0.36744907
8176000000 0.92277789 -0.2512103 5.9120907e-007 -2.5746443e-005 5.9671547e-005 -9.1134789e-005 0.88509202 0.35702482
8187000000 0.91845322 -0.26155549 8.1922313e-005 -4.2159223e-005 -0.00010961852 -0.00021843768 0.88915145 0.3466222
8198000000 0.91506863 -0.27288365 -3.4662113e-005 -0.000132938 0.00011168376 -0.00014001143 0.89255893 0.33644846
8209000000 0.91102713 -0.28239128 -0.0001016957 -5.4958939e-005 -0.00010930507 -6.3631509e-005 0.89775884 0.32596305
8220000000 0.90939385 -0.29379323 -5.9951493e-005 -0.000199986 2.6960583e-005 4.7752106e-005 0.90056181 0.31568885
8231000000 0.90604842 -0.30388165 -9.0553585e-005 6.9634021e-005 -9.6637625e-005 -1.2841491e-005 0.90354031 0.30483857
8242000000 0.9032867 -0.31647739 4.708555e-007 4.7175366e-005 -4.1871681e-007 9.7315555e-005 0.90732551 0.29541108
8253000000 0.89930934 -0.32904828 2.8301843e-006 -2.9465889e-005 -0.00022653477 6.0214261e-005 0.91035807 0.28521183
8264000000 0.89367312 -0.3407537 -7.031872e-006 -3.4940654e-006 1.5171324e-005 -6.505083e-005 0.91398311 0.27440494
8275000000 0.88817352 -0.35250878 -3.5655237e-005 -3.5894918e-005 -5.7972589e-005 -9.0196205e-005 0.91765016 0.26453045
8286000000 0.88309032 -0.36251047 7.2152419e-005 -4.2434978e-005 -4.2161114e-006 -1.0110751e-006 0.92094952 0.25396192
8297000000 0.87757599 -0.37225974 -8.5866895e-006 1.6564518e-005 -2.8015096e-005 -7.0169961e-005 0.92250156 0.24330518
8308000000 0.87275732 -0.38156658 8.3253508e-005 -4.5089604e-005 1.0129846e-005 -3.1148636e-005 0.92542988 0.23232403
8319000000 0.8694641 -0.39249432 0.00011715882 -0.00012661084 -4.4009848e-005 -0.00016911011 0.92785388 0.22176377
8330000000 0.86573172 -0.40377912 3.608219e-005 -7.6416991e-006 -5.1878047e-005 5.0344057e-005 0.93011439 0.21089901
8341000000 0.86123282 -0.41507792 -4.8968475e-005 -3.6574205e-005 3.7569866e-005 2.3912464e-005 0.9323011 0.2001068
8352000000 0.85641336 -0.42783436 -3.0902934e-006 -2.5603389e-005 -9.3320843e-005 -9.1252579e-005 0.93475723 0.18916908
8363000000 0.84868395 -0.43838835 -1.878424e-005 -0.0001837826 -6.4121472e-005 2.9248409e-005 0.93707854 0.17783549
8374000000 0.84284347 -0.4483203 7.9182631e-005 -0.00012135556 0.00014249459 -6.5221873e-005 0.93858236 0.16676891
8385000000 0.8364417 -0.4579432 -3.0799045e-005 7.8093959e-005 -3.7431968e-005 -8.2863997e-005 0.9404372 0.15672763
8396000000 0.83016253 -0.46642998 4.399844e-005 -0.00010858008 3.016507e-006 -0.0001175776 0.94150907 0.14600927
8407000000 0.82584047 -0.47602868 -0.00012692594 -6.769917e-006 -5.7858259e-005 1.5969572e-005 0.94352323 0.13495976
8418000000 0.82094067 -0.4858157 -9.9805533e-005 -8.2401413e-005 -6.9049616e-005 -3.6411504e-005 0.9443897 0.12417233
8429000000 0.81543869 -0.49557343 2.5153991e-005 1.7746663e-005 -8.7167347e-005 -6.6163353e-005 0.94550198 0.11356439
8440000000 0.81115294 -0.5083639 4.4308086e-005 -0.00017167517 -3.6429588e-005 -0.00024529887 0.94755852 0.10222808
8451000000 0.80306882 -0.51947045 4.0340154e-005 -1.4271521e-005 -0.00013137829 -0.00010859365 0.94821984 0.092344575
8462000000 0.7943961 -0.53021944 -5.6891959e-006 6.0220154e-006 -0.00012144978 8.518363e-005 0.94905919 0.081855029
8473000000 0.78609824 -0.54016817 -0.00017026538 -3.7415935e-005 -0.00013064715 -5.8238904e-005 0.95027202 0.06997598
8484000000 0.77851242 -0.54890573 -7.9981182e-005 -3.0880321e-005 -4.4040655e-005 1.4282475e-005 0.95199978 0.059836734
8495000000 0.77045941 -0.55713636 -7.7616452e-005 -0.00010872661 -5.864284e-005 -0.0002289137 0.9524582 0.04892588
8506000000 0.76452035 -0.56581432 -0.00014369549 -0.00014057904 -8.7029621e-005 -0.00011559889 0.95237654 0.037638325
8517000000 0.75844502 -0.57526618 -0.00010910975 -7.5092263e-005 -3.5821249e-005 7.4387731e-006 0.95181727 0.026925905
8528000000 0.75213492 -0.58447331 -0.00013495557 -3.0804564e-005 -4.8993217e-005 -6.1360799e-005 0.95195079 0.01611531
8539000000 0.74599779 -0.59514517 -5.2416493e-005 -0.00012022085 4.948883e-005 -8.950301e-005 0.95206106 0.0047002747
8550000000 0.73873973 -0.60549587 3.456172e-006 -1.6129912e-005 -0.00010229246 1.7046006e-005 0.95196664 -0.0063921311
8561000000 0.72878319 -0.61478454 -3.8006059e-005 -6.3341759e-005 -1.2719586e-005 -7.9860773e-005 0.95167327 -0.018481823
8572000000 0.72060889 -0.62391567 -0.0001001849 -5.6177603e-005 -4.4959728e-005 -7.5121286e-005 0.95021707 -0.029461537
8583000000 0.71141928 -0.63186628 -4.0651954e-005 -0.00010713122 0.00015517014 -6.9455018e-005 0.95051444 -0.040885113
8594000000 0.70375729 -0.63925576 -0.00021000588 0.00017205514 -6.1292914e-005 8.9922396e-005 0.95024067 -0.051758345
8605000000 0.69643801 -0.64682454 -8.0956655e-005 -4.3483535e-005 6.9230614e-006 -1.3865567e-005 0.949507 -0.063079424
8616000000 0.68991756 -0.65629363 -6.6630088e-007 9.2306167e-005 -0.00011950915 -5.799489e-005 0.94966871 -0.073949069
8627000000 0.68214935 -0.66466105 4.2820524e-005 -5.2920725e-005 -0.00011538013 5.6251203e-005 0.94829363 -0.084775969
8638000000 0.67397827 -0.67489856 -1.3889016e-005 -0.0001413495 -0.00011156736 -8.6277701e-005 0.94747925 -0.094975121
8649000000 0.66415054 -0.6831162 -8.9743306e-005 -9.906078e-005 -0.0002743896 -0.00012785669 0.9464494 -0.10531332
8660000000 0.65416747 -0.69254464 -0.00013632436 9.6447429e-006 -6.884605e-005 0.00013622797 0.94399554 -0.11547912
8671000000 0.64389592 -0.70017481 8.1003804e-005 -0.00012288908 -8.2281018e-005 2.2315986e-005 0.94307619 -0.12618832
8682000000 0.63538367 -0.70750922 -0.00011293768 9.7819793e-006 -2.4858891e-005 3.446484e-006 0.94211316 -0.13772599
8693000000 0.62630093 -0.71366829 -2.4607894e-005 -3.554254e-005 -0.00014498924 1.1272923e-005 0.94076377 -0.14864974
8704000000 0.61882931 -0.721892 -0.00014127209 -2.8495489e-005 -0.0001246906 -0.00010520953 0.93893957 -0.15992753
8715000000 0.61084628 -0.7286126 -1.7049439e-005 3.1876807e-005 -4.5573983e-005 -0.00012279247 0.9372009 -0.17016566
8726000000 0.60238469 -0.73728591 8.3698404e-005 2.861555e-006 -0.00011944339 -6.1432089e-005 0.93424332 -0.18196975
8737000000 0.59321022 -0.74611473 -0.00010249766 -9.8461656e-005 5.752182e-006 -8.8126362e-005 0.93087566 -0.192573
8748000000 0.58258086 -0.7544831 -3.7741829e-005 0.0001752276 -0.00011115504 9.4376221e-005 0.92853761 -0.20333722
8759000000 0.57163399 -0.76211238 -0.00012828482 0.00011455584 8.53608e-005 -0.00010091303 0.92520404 -0.2148951
8770000000 0.56111163 -0.76825017 -0.00024996052 0.00014629662 -6.9005073e-005 7.200068e-006 0.92467737 -0.22418374
8781000000 0.55056387 -0.77304149 1.786129e-005 0.00013795485 -2.8772054e-005 0.00012794799 0.92140478 -0.23536918
8792000000 0.54110384 -0.77804738 -8.7831482e-005 -7.9960766e-005 -6.0755643e-005 0.00025804373 0.91862023 -0.24590735
8803000000 0.53294361 -0.78374904 -6.9227142e-005 4.8937771e-005 -6.0201139e-005 -7.3388401e-005 0.91637933 -0.25676364
8814000000 0.52376372 -0.79054922 -7.2252784e-005 5.69033e-005 -3.1786833e-005 -3.4870409e-005 0.91192406 -0.26714686
8825000000 0.51493257 -0.79921335 4.8618906e-005 3.6129986e-006 -0.00014447748 -4.6251847e-005 0.90923095 -0.27775523
8836000000 0.5052371 -0.80623794 -0.00016839078 -2.5965269e-006 -0.0002009311 1.2511602e-005 0.90589428 -0.28805727
8847000000 0.49380025 -0.81419468 -5.3413918e-005 9.1013906e-005 -6.2871077e-005 -1.4900296e-005 0.90282464 -0.29779714
8858000000 0.48171464 -0.82078689 -9.3123839e-005 4.7810066e-005 -0.00018947612 8.2188191e-005 0.89891434 -0.30867243
8869000000 0.4691799 -0.82564896 -0.0001554995 9.3134026e-005 0.00011407928 -1.9464649e-005 0.89544278 -0.31892654
8880000000 0.45885816 -0.83042949 1.0788794e-005 5.1541872e-005 -1.8098088e-005 1.2221413e-005 0.89125395 -0.32909089
8891000000 0.4489646 -0.83508271 -9.4025258e-005 0.00015862728 -0.00017323087 -5.6985788e-005 0.88809693 -0.33978513
8902000000 0.43912524 -0.83862746 -6.1417966e-005 4.1588475e-005 8.5780361e-005 -5.9471244e-005 0.88332522 -0.35020989
8913000000 0.42959112 -0.8447172 -4.4251101e-005 1.9762103e-005 -8.819122e-005 -7.2286719e-005 0.87887764 -0.36066768
8924000000 0.42042574 -0.85062015 1.303707e-005 0.0001733067 -1.4710923e-005 -7.5485565e-005 0.87424904 -0.37168282
8935000000 0.40949959 -0.85696036 -0.0001328145 -0.00011385687 -9.8677068e-005 1.0173036e-005 0.86957473 -0.381441
8946000000 0.39820549 -0.86300462 -1.7349339e-005 -2.3381675e-005 -3.5986715e-005 -3.7104761e-005 0.86435598 -0.39172217
8957000000 0.38616505 -0.86825061 -1.743022e-005 -6.0568702e-005 -2.223519e-006 -2.1222138e-005 0.8608309 -0.40194762
8968000000 0.37414467 -0.87217164 -6.2084051e-005 -0.0001322724 -5.7990928e-005 -5.6526114e-005 0.8556174 -0.41159803
8979000000 0.36263698 -0.87512636 -0.00012388696 -9.8275683e-005 -0.00011020801 -5.7661895e-005 0.85084164 -0.42131069
8990000000 0.35193053 -0.87834108 -9.1992952e-005 5.8730238e-005 -8.6587846e-005 -0.00015149431 0.84751374 -0.43083829
9001000000 0.34210384 -0.88285077 -7.8076329e-005 -8.1434933e-005 5.7342098e-005 9.0415824e-006 0.842076 -0.44038233
9012000000 0.33068374 -0.88746655 2.772521e-007 -0.00010118778 -0.00016313129 5.4588647e-005 0.83753353 -0.45043847
9023000000 0.32061127 -0.892986 4.8140406e-005 -3.007714e-006 -0.00010266724 -6.7195186e-005 0.83194649 -0.45943254
9034000000 0.30845377 -0.89806169 -5.124008e-005 0.00025274046 -6.5714419e-005 4.2225762e-005 0.82647902 -0.46952847
9045000000 0.29542786 -0.90254992 -2.1413623e-005 1.2514173e-006 -0.00011921056 0.00014806335 0.82052422 -0.4785105
9056000000 0.28259239 -0.9056226 -0.00015449962 5.2664029e-005 -3.3787055e-005 2.8332788e-005 0.81474113 -0.48827159
9067000000 0.27035722 -0.90761679 7.3270647e-005 0.00012748536 -9.4316187e-005 -1.4457961e-005 0.80810493 -0.49737868
9078000000 0.258845 -0.90880972 -2.2248489e-006 -5.8741902e-005 -9.2717484e-005 5.7559042e-005 0.80214453 -0.50759906
9089000000 0.24814063 -0.90998363 -1.9931593e-005 6.5525841e-005 -7.9898073e-006 2.6535859e-005 0.79571837 -0.51593775
9100000000 0.23884803 -0.91327649 -1.653053e-005 0.0001606205 -8.158775e-005 -7.500792e-006 0.78982896 -0.52566451
9111000000 0.22835603 -0.91732174 -0.00011724528 4.8763744e-005 6.1825485e-005 -3.6902489e-007 0.78299844 -0.53528434
9122000000 0.21734086 -0.92149979 0.00012582076 7.5709198e-005 -0.00010795965 0.00010244638 0.7775653 -0.54474288
9133000000 0.20498765 -0.92608476 -0.00013160081 1.6540233e-005 -8.6133296e-005 0.00012722095 0.77052039 -0.55344021
9144000000 0.19311269 -0.92963701 -3.428779e-005 2.9753472e-005 -3.8693768e-005 3.0122517e-005 0.76423919 -0.56223631
9155000000 0.17903815 -0.93119287 -0.00014480064 0.00013025006 -3.556244e-005 -4.011672e-005 0.75726223 -0.57073402
9166000000 0.16550469 -0.93228447 -9.1113463e-005 8.1506827e-005 -0.00012319699 5.2486037e-005 0.75153011 -0.57956868
9177000000 0.15310514 -0.93205929 -4.6487261e-005 -4.5334094e-005 -9.6020551e-005 -6.1646002e-005 0.74420869 -0.58789247
9188000000 0.14182241 -0.93236887 -6.7463334e-005 -2.1141419e-008 7.4437732e-005 0.0001071484 0.73717201 -0.59629399
9199000000 0.13132817 -0.93260467 -0.0001453049 7.1622759e-005 -5.2556024e-005 2.1176771e-005 0.73053843 -0.60545552
9210000000 0.12102936 -0.93504202 -0.000116266 -6.7128138e-005 -4.8154947e-005 0.00010979576 0.72417903 -0.61420125
9221000000 0.10881453 -0.93695873 2.8245375e-005 0.00015347786 -0.00010703304 0.00016802778 0.71650606 -0.62203479
9232000000 0.09699221 -0.93970722 -3.1248263e-005 0.00014264174 6.2610554e-005 0.00010712029 0.70886379 -0.63026166
9243000000 0.084215932 -0.94179988 7.3243712e-008 0.00014118387 -2.2287806e-005 0.00019038886 0.70128399 -0.6382795
9254000000 0.071099006 -0.94321841 -0.00012968229 0.00014953603 4.9037946e-005 -3.8495138e-005 0.69285846 -0.64674437
9265000000 0.058690395 -0.94272459 -7.4643227e-005 -4.3345124e-005 -6.1173065e-005 -0.00014162644 0.68468547 -0.65422755
9276000000 0.046118323 -0.94224709 -7.854831e-006 4.9223967e-005 -4.8062142e-005 2.0918262e-005 0.67732543 -0.66199297
9287000000 0.035457306 -0.94166583 0.00013116152 7.5863918e-006 -6.0913953e-006 9.7511484e-006 0.66879219 -0.67023158
9298000000 0.024382368 -0.94149518 2.0406924e-005 -3.5830894e-006 7.0938775e-005 0.00011288258 0.6612559 -0.67829537
9309000000 0.013847048 -0.94246018 2.0953409e-007 4.4093713e-006 7.4986594e-005 9.8150711e-005 0.65337086 -0.68594629
9320000000 0.0022730564 -0.94311935 6.4838164e-006 3.5690334e-007 -4.4552162e-005 6.8897934e-005 0.64512384 -0.69387382
9331000000 -0.010647885 -0.94379503 5.4120021e-005 -7.963727e-005 -5.3615113e-005 -1.6239072e-005 0.63680494 -0.70149219
9342000000 -0.023322619 -0.94412041 -7.3515325e-006 -7.9618083e-005 1.6544684e-006 5.1146744e-005 0.62900913 -0.70884311
9353000000 -0.037384704 -0.94256365 -9.6837284e-005 3.6973775e-005 -5.1536099e-005 -0.00013832733 0.62051851 -0.71541905
9364000000 -0.0499961 -0.94083798 -9.318364e-005 7.6050463e-005 2.9891242e-005 -2.7294393e-005 0.6125015 -0.72352332
9375000000 -0.062080562 -0.93819612 4.1251744e-005 -8.5509855e-005 -4.8486003e-005 6.834825e-005 0.60390013 -0.73029107
9386000000 -0.072789207 -0.9356699 7.9566126e-007 0.00011991461 -0.00021979323 9.563574e-005 0.59556377 -0.73698044
9397000000 -0.083074048 -0.93585426 0.00010959143 3.9549679e-005 5.8416845e-005 -6.237394e-005 0.58718473 -0.74392104
9408000000 -0.094329692 -0.93539059 -0.00015124003 5.3685362e-005 4.1601845e-005 8.152891e-005 0.57812017 -0.75104505
9419000000 -0.10566094 -0.93534321 9.5323849e-005 8.0830017e-005 3.486883e-005 -6.9924186e-005 0.56886756 -0.75679368
9430000000 -0.11817213 -0.93461382 3.0111354e-005 0.00011109552 -7.989299e-005 0.00011026218 0.56008446 -0.763506
9441000000 -0.13139571 -0.93437147 -0.00012179356 0.00016071193 4.0607512e-005 -2.8941784e-005 0.5501371 -0.7698341
9452000000 -0.1448901 -0.93207961 5.0449242e-005 0.00015751256 -7.4130898e-005 5.898633e-005 0.54088122 -0.77565849
9463000000 -0.1569007 -0.92870808 0.00010373358 3.0277693e-005 -5.775211e-005 -2.3298315e-005 0.53144211 -0.78178686
9474000000 -0.1680329 -0.92439365 -5.077945e-005 0.00021939265 1.4483634e-006 0.00021661386 0.52257675 -0.78849369
9485000000 -0.17895855 -0.92146552 1.2095135e-005 0.00020529583 -3.0482166e-005 0.00011027774 0.51327318 -0.79400098
9496000000 -0.18908563 -0.91834491 2.9955883e-005 9.8171549e-006 -1.0333529e-005 0.00014465989 0.50366318 -0.80052543
9507000000 -0.19889715 -0.91730982 2.8946421e-005 0.00016584812 8.4564766e-005 -5.7038087e-006 0.49511832 -0.80688632
9518000000 -0.21049534 -0.9165715 -5.1998257e-005 -6.2177285e-005 -3.0872328e-005 -3.4626537e-005 0.48545352 -0.81317061
9529000000 -0.22317876 -0.91567665 7.3446849e-006 7.3665571e-005 1.3067307e-005 9.2328708e-005 0.47497272 -0.81832725
9540000000 -0.23695087 -0.91293728 -6.9994334e-005 0.00014518113 8.4533851e-005 -8.953028e-005 0.46601638 -0.82455528
9551000000 -0.25060529 -0.90879333 9.418853e-005 -3.4958321e-005 -7.2018447e-005 6.6161047e-005 0.45647094 -0.82928598
9562000000 -0.26398307 -0.90408045 -3.2836757e-005 8.4400686e-005 8.8091554e-005 4.821027e-005 0.44584778 -0.83405083
9573000000 -0.27556089 -0.8992843 0.00016527303 0.00021092602 -0.00013799466 4.6969864e-005 0.43663889 -0.84014237
9584000000 -0.2859633 -0.89302099 -0.00015489591 7.2183957e-006 8.6275511e-005 0.00011168887 0.42644277 -0.84423387
9595000000 -0.2958768 -0.88908309 -2.6255466e-005 6.7629444e-005 0.00011349664 6.7301364e-005 0.41699594 -0.84943593
9606000000 -0.3062883 -0.8854382 -0.00016763013 -0.00014031431 3.0803947e-006 6.1793471e-005 0.40680721 -0.85472047
9617000000 -0.31726488 -0.88295585 5.1694133e-005 0.00016143541 3.9492494e-005 1.10527e-005 0.39615315 -0.85835141
9628000000 -0.32798246 -0.8798961 -4.540922e-006 7.1154951e-005 4.5393695e-005 -4.2504202e-005 0.38592935 -0.86313528
9639000000 -0.34088984 -0.87532628 -1.6537626e-005 0.00010599353 -5.2566385e-005 0.0001556701 0.37590209 -0.86807841
9650000000 -0.35405302 -0.87098706 2.2339553e-005 0.00016732236 -9.4620489e-005 0.00014035797 0.36501238 -0.87208986
9661000000 -0.36451054 -0.86522931 -8.929363e-005 0.00018232304 -8.9342022e-005 -2.7197355e-005 0.35460076 -0.87644595
9672000000 -0.37531379 -0.85840505 6.2182326e-006 4.8009264e-005 5.7831308e-005 1.2167139e-005 0.34376243 -0.87931663
9683000000 -0.38523525 -0.85272938 -2.2959118e-006 4.0286723e-005 5.6330828e-005 -1.449918e-005 0.3332814 -0.8843466
9694000000 -0.3944636 -0.8479538 0.00015306078 -5.3167241e-005 0.0002017419 -5.7254299e-005 0.32330465 -0.8886025
9705000000 -0.40452793 -0.84294027 -0.00014740543 5.7097906e-005 0.00022524918 8.4658612e-005 0.31280801 -0.89247113
9716000000 -0.41507646 -0.83888614 -4.2606971e-005 0.00010265681 -7.663008e-005 5.8061178e-005 0.30216375 -0.89662117
9727000000 -0.42652479 -0.83402145 2.6796773e-005 -1.5977714e-005 3.159498e-005 3.8286293e-005 0.29161292 -0.8994692
9738000000 -0.4387807 -0.828713 1.5717773e-005 4.0959494e-005 5.1376643e-005 0.00013734058 0.28116971 -0.90304017
9749000000 -0.4504256 -0.82222092 -3.8069415e-005 5.9814531e-005 3.9837312e-005 7.8503166e-005 0.27067548 -0.90601295
9760000000 -0.4610469 -0.81524146 -6.2977822e-005 0.00010133228 -1.980143e-005 5.0239356e-005 0.25959969 -0.90905249
9771000000 -0.47051209 -0.80721092 0.00019729834 8.5825384e-005 3.4221677e-005 1.1071369e-005 0.24931271 -0.91131699
9782000000 -0.47924533 -0.800924 0.00010268428 -1.0377733e-005 2.7498979e-006 0.00011815374 0.2391022 -0.91475862
9793000000 -0.48776084 -0.79466116 6.1723425e-005 0.00010056132 0.00013571604 -4.264095e-005 0.22823577 -0.9170509
9804000000 -0.4971984 -0.79016745 5.4128945e-005 0.00010867656 3.627381e-005 3.3896955e-005 0.2169465 -0.9187879
9815000000 -0.50782531 -0.78522855 -8.6383305e-005 0.00012069185 0.00015876329 9.9713012e-005 0.20538317 -0.92156607
