!Agilent Technologies,N5247A,US51370446,A.10.00.00
!Agilent N5247A: A.10.00.00
!Date: Tuesday, October 16, 2018 05:08:12
!Correction: S11(Full 2 Port(1,2)) 
!S21(Full 2 Port(1,2)) 
!S12(Full 2 Port(1,2)) 
!S22(Full 2 Port(1,2)) 
!S2P File: Measurements: S11, S21, S12, S22:
# Hz S  RI   R 50
8000000000 0.093794487 0.035578649 -0.81076777 0.46905226 -0.811584 0.46874532 -0.0031140198 0.094196551
8011000000 0.094896734 0.034663521 -0.80430055 0.47985184 -0.80522567 0.47930112 -0.0020091007 0.094204128
8022000000 0.095694408 0.033772755 -0.79838395 0.49091238 -0.79907882 0.49028334 5.9244387e-005 0.094678968
8033000000 0.097613528 0.03262683 -0.79166645 0.50177306 -0.79136753 0.50064522 0.001269231 0.094421349
8044000000 0.097559512 0.032322958 -0.78481567 0.51229239 -0.78490865 0.51207674 0.0032008747 0.094891168
8055000000 0.097712994 0.030053196 -0.77743155 0.52333397 -0.77784121 0.52211183 0.0051178788 0.095349312
8066000000 0.098599128 0.030176109 -0.76984888 0.53382391 -0.77062076 0.53325516 0.0062926677 0.094966881
8077000000 0.09862788 0.029598113 -0.76194686 0.54424959 -0.76284754 0.54360038 0.0079655703 0.09530808
8088000000 0.099132583 0.028082026 -0.75459915 0.55438429 -0.75587493 0.55438715 0.0094278548 0.095503122
8099000000 0.09962222 0.027912127 -0.74703777 0.56488848 -0.74725872 0.56395429 0.010507853 0.096195556
8110000000 0.10069704 0.027464589 -0.73894978 0.5741756 -0.74045569 0.57496339 0.01155581 0.096078694
8121000000 0.10155464 0.025559969 -0.73086846 0.5841651 -0.73183781 0.58431011 0.013378724 0.09667065
8132000000 0.10230228 0.024480112 -0.72333568 0.59423411 -0.72371012 0.59390092 0.014939015 0.09707617
8143000000 0.10238014 0.023168102 -0.71593028 0.60358649 -0.71542096 0.6038624 0.01607264 0.097098537
8154000000 0.10290489 0.022022251 -0.70757085 0.61349148 -0.70750439 0.61349356 0.01809453 0.0970442
8165000000 0.10246524 0.02028968 -0.69943023 0.62383908 -0.69851035 0.62326425 0.019361049 0.096680686
8176000000 0.10343646 0.020827206 -0.69095898 0.63408923 -0.68921721 0.63182926 0.020866232 0.096109144
8187000000 0.10407693 0.019419024 -0.68121171 0.64270502 -0.68116623 0.64147317 0.022861138 0.096079864
8198000000 0.10472235 0.018785533 -0.67188144 0.65215331 -0.67226344 0.65039968 0.02409979 0.095636219
8209000000 0.10513051 0.016818944 -0.66303164 0.66135424 -0.66353822 0.65997154 0.025797328 0.096139006
8220000000 0.10587763 0.016399946 -0.65371436 0.66911334 -0.65494013 0.66965467 0.027077291 0.094575897
8231000000 0.10591053 0.015748952 -0.64436001 0.67796248 -0.64523983 0.67780864 0.02907978 0.095262177
8242000000 0.1066588 0.014245458 -0.63510627 0.68663293 -0.63589042 0.68618107 0.030477965 0.094945118
8253000000 0.1071367 0.013210322 -0.62567574 0.69477445 -0.62615561 0.69473732 0.031782862 0.094272397
8264000000 0.10740694 0.011429377 -0.6170854 0.7043075 -0.61691427 0.70320386 0.033944014 0.094391018
8275000000 0.10778488 0.01054383 -0.60701001 0.71220326 -0.6071561 0.71144795 0.034839913 0.09397646
8286000000 0.10754193 0.0091839684 -0.59688962 0.72003949 -0.59782755 0.7197482 0.036954705 0.093918934
8297000000 0.10788238 0.0078839865 -0.58701146 0.72854519 -0.58755177 0.72816241 0.038257096 0.094276302
8308000000 0.10853127 0.0070312619 -0.57677335 0.73560697 -0.57783866 0.73583394 0.039420672 0.094236881
8319000000 0.10882724 0.005445567 -0.56659508 0.74399102 -0.56728125 0.74339557 0.040871006 0.093233116
8330000000 0.10880621 0.0038320115 -0.55667603 0.7513923 -0.55660552 0.75098234 0.042381234 0.092829324
8341000000 0.10943496 0.0027786451 -0.54577374 0.75843805 -0.54668081 0.75868571 0.043773737 0.0919296
8352000000 0.10920958 0.0014997231 -0.53536564 0.76608872 -0.5361073 0.76567268 0.044547681 0.091310911
8363000000 0.10895926 -7.6083656e-005 -0.5249896 0.77352715 -0.52593017 0.77251327 0.046068467 0.091176905
8374000000 0.10934428 -0.00064855529 -0.51423222 0.78014791 -0.51486021 0.77972358 0.048150294 0.090238184
8385000000 0.11015755 -0.0013042047 -0.5032773 0.78658044 -0.5048272 0.78709304 0.050044492 0.08955165
8396000000 0.11069941 -0.0023044436 -0.49302167 0.79335058 -0.49395022 0.79331535 0.051129058 0.088316478
8407000000 0.11066727 -0.0032387616 -0.48227516 0.80079448 -0.48308069 0.79993725 0.052177221 0.086962603
8418000000 0.11107159 -0.00469393 -0.47107568 0.80655867 -0.47188199 0.80628967 0.053325392 0.087298624
8429000000 0.11123279 -0.0056631411 -0.4612391 0.8131426 -0.4604601 0.81246328 0.055356998 0.087468728
8440000000 0.11075 -0.0068582962 -0.44962665 0.81919074 -0.449608 0.8191213 0.057155225 0.086108923
8451000000 0.1114644 -0.0086790249 -0.43799981 0.82556111 -0.43776628 0.82431549 0.058385111 0.086212866
8462000000 0.1114637 -0.010149644 -0.42678902 0.83148003 -0.42665944 0.8302443 0.059450887 0.085365593
8473000000 0.10988155 -0.011491263 -0.4152317 0.83770454 -0.41544309 0.83542067 0.060559075 0.084470339
8484000000 0.10974106 -0.013364411 -0.40328932 0.84273231 -0.40426818 0.84158146 0.061702184 0.08496201
8495000000 0.10950439 -0.014616571 -0.39151669 0.84812075 -0.39285529 0.84708887 0.062629752 0.084309012
8506000000 0.10944063 -0.015305355 -0.38009197 0.85317165 -0.38126603 0.85219115 0.063548662 0.083031595
8517000000 0.11043119 -0.017218899 -0.36749256 0.85730267 -0.36951181 0.85753638 0.064459614 0.082470246
8528000000 0.11015712 -0.018009113 -0.35669106 0.86254627 -0.35792872 0.8618781 0.065690406 0.081912294
8539000000 0.11054812 -0.019936107 -0.34527963 0.86690849 -0.34601441 0.86675733 0.066620067 0.080163836
8550000000 0.1102644 -0.021298507 -0.33391988 0.87164664 -0.33412886 0.87164301 0.068156309 0.079500519
8561000000 0.10942679 -0.022145702 -0.32179448 0.87580383 -0.32220975 0.87585133 0.068981677 0.078548081
8572000000 0.10951225 -0.022963246 -0.30997893 0.88115841 -0.30988297 0.8798508 0.070512228 0.076859839
8583000000 0.10931057 -0.024546444 -0.29736891 0.88522238 -0.297941 0.88415396 0.071818948 0.075826637
8594000000 0.10915785 -0.025112489 -0.28528002 0.88912034 -0.28547031 0.88752151 0.073011234 0.074448578
8605000000 0.10845319 -0.025822882 -0.27316007 0.89286041 -0.27345371 0.89134926 0.074973159 0.073990844
8616000000 0.10839531 -0.02733708 -0.26052371 0.89618886 -0.26200309 0.89600354 0.075519778 0.072515167
8627000000 0.10845414 -0.027971007 -0.24805912 0.89920431 -0.24937816 0.89898866 0.077100635 0.072028488
8638000000 0.10895847 -0.030160908 -0.23547855 0.90252686 -0.23728107 0.90180218 0.078571051 0.071449257
8649000000 0.10828971 -0.032117058 -0.22384308 0.90502125 -0.22484668 0.90489227 0.079820164 0.070980586
8660000000 0.1081479 -0.033719361 -0.21173769 0.90808618 -0.21243082 0.90799254 0.080506064 0.069564782
8671000000 0.10718269 -0.035109282 -0.19939964 0.91076732 -0.20006026 0.91075772 0.08124999 0.068684787
8682000000 0.10622406 -0.036726017 -0.18701227 0.91343057 -0.18761913 0.91386712 0.081871927 0.067509413
8693000000 0.10548382 -0.037848584 -0.1746636 0.91616285 -0.17507502 0.9159379 0.082878232 0.066939279
8704000000 0.10524983 -0.038830008 -0.16211006 0.91835928 -0.16225873 0.91837686 0.083447941 0.065899126
8715000000 0.10487045 -0.040197026 -0.14991835 0.92049479 -0.15006283 0.9202975 0.085116155 0.065494329
8726000000 0.10489975 -0.041297782 -0.13666929 0.92204833 -0.13759689 0.92250448 0.085989982 0.063836306
8737000000 0.10518263 -0.042906191 -0.12369519 0.92412722 -0.12468733 0.92374969 0.086918592 0.062525094
8748000000 0.10485147 -0.044792287 -0.11104403 0.92603612 -0.11194899 0.92530078 0.087573297 0.061292082
8759000000 0.10396996 -0.045324609 -0.098138325 0.92740995 -0.098829776 0.92637914 0.087905191 0.060008753
8770000000 0.10349666 -0.047412366 -0.085138738 0.92873871 -0.086744025 0.92778641 0.089923866 0.058652837
8781000000 0.1030364 -0.047501266 -0.072566874 0.92919308 -0.073846698 0.92914486 0.090554968 0.057173129
8792000000 0.10241742 -0.048460085 -0.059819657 0.92943507 -0.061507899 0.92991322 0.091623761 0.0559953
8803000000 0.10164618 -0.049864683 -0.047952387 0.92975461 -0.048711579 0.93072855 0.093115248 0.054215699
8814000000 0.10143653 -0.050572228 -0.035153188 0.93043721 -0.036265891 0.93139112 0.092895485 0.053534601
8825000000 0.10017859 -0.052466355 -0.023178853 0.93124831 -0.023122359 0.93188214 0.093485825 0.052454639
8836000000 0.10021804 -0.053885002 -0.010183438 0.93199509 -0.010584748 0.93181634 0.094522648 0.05166167
8847000000 0.099001996 -0.055804629 0.0027473175 0.93181306 0.0019331619 0.93159455 0.094925649 0.050698012
8858000000 0.097847067 -0.057176776 0.015266675 0.93232191 0.015074391 0.93190557 0.095993385 0.050132845
8869000000 0.096390307 -0.058541235 0.028597394 0.93180364 0.027374843 0.93134725 0.096712388 0.048812695
8880000000 0.095619716 -0.059197426 0.041359652 0.93054324 0.039954878 0.93103617 0.09703771 0.047758318
8891000000 0.094769143 -0.060271151 0.054479949 0.93012005 0.052720152 0.93052906 0.097551942 0.046089031
8902000000 0.094592139 -0.061088469 0.066936567 0.92895275 0.06521327 0.92904729 0.098209113 0.045318045
8913000000 0.094618425 -0.062502846 0.079766355 0.92801595 0.077814475 0.92783564 0.098557025 0.043485895
8924000000 0.093687072 -0.064420119 0.091958635 0.92636293 0.090429045 0.92651004 0.099426515 0.041853581
8935000000 0.092558391 -0.065070793 0.10373685 0.92433852 0.10319959 0.92566609 0.099901333 0.040715531
8946000000 0.091685288 -0.066106878 0.11656791 0.92349887 0.11611411 0.92398679 0.10005942 0.03910017
8957000000 0.091066979 -0.066532701 0.12935738 0.92206055 0.12840916 0.922414 0.10103968 0.037507139
8968000000 0.090135172 -0.067727968 0.14179033 0.92013633 0.14104337 0.9204604 0.10199831 0.03630944
8979000000 0.089325368 -0.069371112 0.15424775 0.9179045 0.1532055 0.91806972 0.10299433 0.034621075
8990000000 0.088265166 -0.070801042 0.16693231 0.91631454 0.16602901 0.91684431 0.10335379 0.033619281
9001000000 0.087564081 -0.071566939 0.17986265 0.91453135 0.17853376 0.91388696 0.10407341 0.032104205
9012000000 0.085781649 -0.07296335 0.19250365 0.91110092 0.19104776 0.91180187 0.10376181 0.031365782
9023000000 0.085152976 -0.074318953 0.20490122 0.90873492 0.20335577 0.90908074 0.10463004 0.030556409
9034000000 0.083689772 -0.075196229 0.217042 0.90551168 0.21608123 0.90619665 0.10487264 0.029547349
9045000000 0.082839124 -0.076351374 0.22961709 0.90227985 0.22830309 0.90301526 0.1051347 0.028681893
9056000000 0.081063285 -0.07719285 0.24213523 0.89922541 0.24064322 0.89937961 0.10555475 0.027343435
9067000000 0.079961091 -0.078201152 0.25433055 0.89511889 0.25209507 0.89565665 0.10637593 0.026580431
9078000000 0.078918353 -0.078499906 0.26611739 0.89141864 0.26448363 0.89286035 0.10693676 0.024812091
9089000000 0.078064211 -0.080235317 0.27744213 0.88730729 0.27691761 0.88810194 0.10675194 0.023820763
9100000000 0.076894283 -0.081543513 0.28944665 0.88416958 0.2889618 0.88485116 0.10708106 0.02165452
9111000000 0.07654015 -0.082143657 0.30183819 0.88012242 0.30139133 0.88092881 0.10667205 0.020316569
9122000000 0.075293519 -0.083538264 0.31389239 0.87596893 0.31320295 0.876773 0.10701566 0.019218089
9133000000 0.075206093 -0.084562168 0.32667854 0.87210029 0.32437572 0.87156004 0.10707396 0.017182376
9144000000 0.07360772 -0.085685693 0.33820409 0.8674646 0.33681035 0.86796731 0.10730894 0.01493856
9155000000 0.072800077 -0.086025201 0.35069406 0.86275804 0.34831756 0.86205709 0.107789 0.014143826
9166000000 0.070897631 -0.087788925 0.3622506 0.85777217 0.3606559 0.85829085 0.10836096 0.012656593
9177000000 0.069418952 -0.087777585 0.37401661 0.85133147 0.37169462 0.85240638 0.10821196 0.011482893
9188000000 0.067795224 -0.088798344 0.3856335 0.84650338 0.38315475 0.84753656 0.10839573 0.010461407
9199000000 0.066335104 -0.089117266 0.39641571 0.84106529 0.39492661 0.84224057 0.10894209 0.0092125926
9210000000 0.064648338 -0.090172753 0.407406 0.83518523 0.40655127 0.83677793 0.10902052 0.008549707
9221000000 0.063433699 -0.090605639 0.41861466 0.82954949 0.41813543 0.83100992 0.10942287 0.0075220298
9232000000 0.062352095 -0.091799676 0.43001649 0.8244983 0.42914405 0.82552332 0.10922694 0.0062720762
9243000000 0.061331008 -0.09291289 0.44072789 0.81849504 0.44052175 0.81950057 0.10939004 0.0051510585
9254000000 0.059887499 -0.093731768 0.45248559 0.81251484 0.45188922 0.81321728 0.10924771 0.0037100916
9265000000 0.058352154 -0.094295636 0.4640668 0.80692273 0.46218982 0.80680841 0.10982102 0.0021662835
9276000000 0.057009667 -0.095187388 0.47474518 0.79953879 0.47360155 0.80035788 0.10910082 0.00068858801
9287000000 0.056436464 -0.095087051 0.48572135 0.79273611 0.48409423 0.7934947 0.10904835 -0.00055439433
9298000000 0.054935113 -0.096751891 0.49669594 0.78619778 0.49464366 0.78696996 0.10875143 -0.0026509392
9309000000 0.053490058 -0.097510114 0.50735265 0.77896649 0.50530869 0.78040838 0.10870915 -0.0042337151
9320000000 0.052354209 -0.097944632 0.51798815 0.77167457 0.51612014 0.7733171 0.10882122 -0.0057368507
9331000000 0.051407609 -0.098112069 0.52838522 0.76441509 0.52686125 0.76619917 0.10851441 -0.0065381094
9342000000 0.049627785 -0.099366426 0.53883719 0.75732225 0.53659737 0.75850999 0.10877709 -0.0083610239
9353000000 0.048493538 -0.099586397 0.5485056 0.74893284 0.5466308 0.75118804 0.10898725 -0.0089111691
9364000000 0.046649516 -0.10064492 0.55858988 0.74195266 0.55766338 0.7437706 0.10871522 -0.010381026
9375000000 0.044950362 -0.10033883 0.56854206 0.73391306 0.56721264 0.73590934 0.10891454 -0.011350924
9386000000 0.042940896 -0.10074638 0.57831287 0.72613126 0.57703108 0.72796053 0.10940968 -0.012664644
9397000000 0.041095529 -0.10130151 0.58790988 0.718674 0.58677781 0.7200225 0.10893869 -0.014393956
9408000000 0.039433584 -0.10141774 0.59839123 0.71099889 0.59657323 0.71224904 0.10823028 -0.015563924
9419000000 0.038680024 -0.10239168 0.60783494 0.70273882 0.60670716 0.70452428 0.10823488 -0.016468456
9430000000 0.036546171 -0.1030288 0.61729884 0.69437444 0.61572999 0.69587785 0.10851867 -0.017245444
9441000000 0.036023781 -0.10361395 0.6275382 0.68601429 0.62483132 0.68683678 0.10859454 -0.018156596
9452000000 0.034446787 -0.10450223 0.6368475 0.67682642 0.63482147 0.67869288 0.10776895 -0.019539757
9463000000 0.03308703 -0.10517398 0.64569223 0.66790801 0.64368314 0.67015773 0.10757535 -0.021920195
9474000000 0.031593245 -0.10591831 0.65453357 0.65862 0.65318435 0.66132551 0.10738643 -0.022975186
9485000000 0.029996481 -0.10660293 0.66289282 0.64975476 0.6617943 0.65238714 0.10688026 -0.023859974
9496000000 0.028020902 -0.10624007 0.67152387 0.64098406 0.67027158 0.64293218 0.10662478 -0.025604405
9507000000 0.027292479 -0.10626394 0.67954385 0.63239413 0.68000883 0.63418686 0.10625261 -0.027293829
9518000000 0.026204271 -0.10675768 0.6892519 0.62346423 0.68809229 0.62480301 0.1066122 -0.028510349
9529000000 0.025038762 -0.10676947 0.6975261 0.61421365 0.69682795 0.61520165 0.10612585 -0.029437039
9540000000 0.023041487 -0.10693458 0.70643443 0.60474795 0.70523661 0.60527885 0.10546429 -0.030631889
9551000000 0.020836303 -0.10771043 0.71577013 0.59474188 0.7137599 0.59529543 0.10635964 -0.031382248
9562000000 0.019729864 -0.10705461 0.72413963 0.58392918 0.7210629 0.58531231 0.10557999 -0.032716528
9573000000 0.016700394 -0.10770915 0.73173082 0.57353264 0.72989386 0.57532358 0.10525279 -0.03410219
9584000000 0.014976863 -0.10772996 0.73903686 0.56264794 0.73749852 0.565337 0.10545862 -0.034940973
9595000000 0.013513157 -0.10765681 0.74587882 0.55263931 0.74508047 0.5548659 0.10491377 -0.035969645
9606000000 0.011109403 -0.10723697 0.75285411 0.54221779 0.7523886 0.54447466 0.10438573 -0.037501898
9617000000 0.010240246 -0.10687865 0.76070476 0.53208816 0.75954074 0.53489918 0.10394974 -0.038370617
9628000000 0.0089204991 -0.10785556 0.76748335 0.52221102 0.76689565 0.52416843 0.1025915 -0.039513834
9639000000 0.0071418295 -0.10904457 0.77487683 0.51153111 0.77375215 0.51310551 0.10257994 -0.040800754
9650000000 0.0057086204 -0.10914127 0.7813431 0.50059575 0.78062469 0.50230098 0.10178075 -0.041535046
9661000000 0.0040687658 -0.10857645 0.78842849 0.49023584 0.78672498 0.49165747 0.10153047 -0.043561015
9672000000 0.0034873621 -0.10899904 0.79435128 0.47878021 0.7936728 0.48088485 0.10110924 -0.044469357
9683000000 0.0015690336 -0.10886972 0.8015002 0.46821389 0.79986995 0.46969312 0.10064295 -0.046716951
9694000000 -0.00015751617 -0.10919192 0.80799085 0.45709127 0.80609566 0.45873716 0.099225909 -0.047812071
9705000000 -0.0021775891 -0.10864008 0.81287217 0.44577774 0.81234866 0.44793275 0.099497072 -0.048692591
9716000000 -0.0037287425 -0.10812486 0.81946331 0.43470895 0.81843603 0.43676332 0.099226788 -0.05001992
9727000000 -0.0050819521 -0.10745625 0.8252694 0.42295849 0.82486534 0.42565018 0.098358572 -0.051406957
9738000000 -0.0066756508 -0.10781118 0.83086461 0.41124907 0.83001626 0.41411868 0.097887322 -0.051946368
9749000000 -0.0082692951 -0.10797764 0.83672512 0.40053773 0.83512545 0.40278241 0.097719319 -0.053333767
9760000000 -0.0097385822 -0.10721467 0.84222603 0.3885968 0.84080547 0.39187074 0.097780228 -0.054511826
9771000000 -0.011375206 -0.10753585 0.84684211 0.37702948 0.84571588 0.37983313 0.097829483 -0.055420637
9782000000 -0.01358672 -0.10720121 0.85086876 0.3657181 0.85144705 0.36847875 0.096986845 -0.057390474
9793000000 -0.015062059 -0.10729904 0.85675132 0.35471037 0.85635704 0.3567467 0.096580334 -0.058241826
9804000000 -0.01675248 -0.10699819 0.86161292 0.3430436 0.86049217 0.34485 0.09549433 -0.059445135
9815000000 -0.018807793 -0.10654487 0.86608148 0.331085 0.86526549 0.33311754 0.094082765 -0.060219932
9826000000 -0.01992861 -0.10577858 0.87129575 0.31934682 0.86957645 0.32174963 0.093099795 -0.060950834
9837000000 -0.021489738 -0.10596299 0.87624902 0.30734846 0.87420136 0.30928114 0.092024371 -0.061587792
9848000000 -0.022792293 -0.10587749 0.880171 0.29433644 0.87804854 0.29754004 0.091916047 -0.063498944
9859000000 -0.024070827 -0.10581435 0.88333958 0.28183007 0.88233274 0.28532976 0.091410391 -0.064101107
9870000000 -0.026101325 -0.1058505 0.88635761 0.2696574 0.88609821 0.27337411 0.091039479 -0.065777875
9881000000 -0.027489917 -0.10452928 0.88937926 0.2569313 0.88963091 0.26154286 0.090635531 -0.067465879
9892000000 -0.028913226 -0.10392405 0.89322191 0.24521551 0.89294517 0.24915808 0.088924453 -0.068290979
9903000000 -0.030608155 -0.10357126 0.89608133 0.23337328 0.8962146 0.23641364 0.088182285 -0.069302686
9914000000 -0.031380728 -0.10306831 0.89872515 0.22144574 0.89880496 0.22463575 0.087987073 -0.070488423
9925000000 -0.03350836 -0.10229272 0.90177321 0.20949879 0.90272731 0.21239531 0.08687041 -0.072010443
9936000000 -0.035664685 -0.10142587 0.9048726 0.19789149 0.90532887 0.20010562 0.085954443 -0.072285794
9947000000 -0.037244365 -0.1007139 0.90805626 0.18529417 0.9076733 0.18761241 0.085332185 -0.073321551
9958000000 -0.037594855 -0.10004207 0.91116786 0.17242138 0.91038334 0.17475848 0.085026324 -0.074572869
9969000000 -0.040021673 -0.1004317 0.91314745 0.159467 0.91248953 0.1621086 0.084613398 -0.075637795
9980000000 -0.040895458 -0.099389724 0.91525197 0.14694044 0.91462535 0.14986536 0.083939612 -0.076522276
9991000000 -0.042760301 -0.099103607 0.91686106 0.13469712 0.91676915 0.13714339 0.082657568 -0.077817827
10002000000 -0.043849237 -0.098687358 0.91872996 0.12172146 0.91821849 0.12439879 0.081245713 -0.078765541
10013000000 -0.044823118 -0.098082036 0.92074996 0.10902832 0.91934264 0.11248324 0.079988897 -0.079725251
10024000000 -0.047179028 -0.098417893 0.92150015 0.096403711 0.92144525 0.09961506 0.078774177 -0.080352232
10035000000 -0.048825283 -0.097644739 0.92305785 0.084346533 0.92214227 0.086661607 0.078302927 -0.080893792
10046000000 -0.049686041 -0.096042298 0.92271107 0.071101584 0.92358923 0.074591994 0.078356251 -0.082266957
