!Agilent Technologies,N5247A,US51370446,A.10.00.00
!Agilent N5247A: A.10.00.00
!Date: Tuesday, October 16, 2018 05:21:46
!Correction: S11(Full 2 Port(1,2)) 
!S21(Full 2 Port(1,2)) 
!S12(Full 2 Port(1,2)) 
!S22(Full 2 Port(1,2)) 
!S2P File: Measurements: S11, S21, S12, S22:
# Hz S  RI   R 50
8000000000 -0.36568683 -0.84860528 -0.0006526208 0.00073556817 -0.00031303772 0.00076078001 0.43821582 -0.83241099
8011000000 -0.38126644 -0.8427462 -0.00040010965 0.00070134213 -0.00037754199 0.00085149397 0.42622349 -0.83943701
8022000000 -0.39822921 -0.83635044 -0.00023143711 0.00073259458 -0.00042025297 0.00074528449 0.4133938 -0.84583396
8033000000 -0.41407695 -0.82744056 -0.00027478737 0.00081006088 -0.00031617208 0.00077075226 0.40157115 -0.85305744
8044000000 -0.42928702 -0.8186149 -0.00033953151 0.00074293104 -0.00037810334 0.00073035405 0.38879475 -0.85860032
8055000000 -0.44284952 -0.81009352 -0.00030386142 0.00094851683 -0.00056361267 0.00064234441 0.3750478 -0.86453229
8066000000 -0.45582053 -0.79998016 -0.00023884518 0.00063718116 -0.00026567807 0.00073585217 0.36259553 -0.8689332
8077000000 -0.46868879 -0.7928735 -0.00027955588 0.00084718165 -0.00038476783 0.00068776909 0.34932312 -0.87284446
8088000000 -0.48100123 -0.78481281 -0.0002535551 0.0007048301 -0.00020053865 0.00070127146 0.33640188 -0.87857258
8099000000 -0.49449146 -0.7775228 -0.00018287997 0.00078745122 -0.00038788142 0.0007368605 0.32326961 -0.88258231
8110000000 -0.50948197 -0.76947689 -0.00023295046 0.00083890639 -0.00022836325 0.00077541562 0.31046143 -0.88736153
8121000000 -0.52351087 -0.76085466 -0.00031373533 0.00086724811 -0.00029612161 0.00069969881 0.2967256 -0.89192396
8132000000 -0.53816354 -0.75040781 -0.00020324561 0.00080050481 -7.9999023e-005 0.00080411357 0.28386667 -0.89667481
8143000000 -0.55084771 -0.73947352 -0.00016780029 0.00091866904 -0.00018706893 0.00085862633 0.26965925 -0.90094543
8154000000 -0.56333381 -0.72914028 -0.00021632914 0.00063507014 6.949003e-005 0.00085194095 0.25658339 -0.90502435
8165000000 -0.57460237 -0.71882468 -6.5326167e-005 0.00068027951 -0.00024079968 0.00088932982 0.24191888 -0.90783954
8176000000 -0.58596724 -0.70931906 -0.00021567092 0.00078707311 -0.0002747938 0.00061265548 0.22913305 -0.91061145
8187000000 -0.59899223 -0.70038754 -0.00025491268 0.00094363635 -0.00027436783 0.00072803372 0.21517801 -0.9141767
8198000000 -0.61194509 -0.69018787 -0.00023034806 0.00077539694 -0.00022097709 0.00078369997 0.20191921 -0.91708106
8209000000 -0.62501723 -0.6797142 -7.3891119e-005 0.00082700292 -0.00015569321 0.00083995826 0.18764196 -0.92047441
8220000000 -0.63790965 -0.66607451 -0.00021411796 0.00076918426 -0.00013514614 0.00081611227 0.17443092 -0.92275298
8231000000 -0.65043914 -0.65436125 -0.00026706798 0.00082858198 -0.0001995819 0.00079507235 0.16111967 -0.92589164
8242000000 -0.66103327 -0.6404745 -3.4418114e-005 0.00066828344 -0.00021506718 0.00077237637 0.14699769 -0.92778736
8253000000 -0.67049944 -0.62737232 -0.00015194045 0.00083166087 -0.00020351962 0.00066515 0.13295631 -0.92962968
8264000000 -0.68022621 -0.61553448 -6.7086956e-005 0.00061059598 -0.00021499462 0.00070205197 0.1184089 -0.93123144
8275000000 -0.68992168 -0.60491639 -0.00022565619 0.00092861051 -0.00021611762 0.00071278826 0.10398182 -0.93328518
8286000000 -0.70122826 -0.59424639 -0.0001798911 0.00080160162 -0.00014644906 0.00089353073 0.089948356 -0.93425769
8297000000 -0.71259856 -0.58354193 -0.00017588446 0.00082275737 -0.00022757417 0.00078659877 0.075172268 -0.93440962
8308000000 -0.72355515 -0.57074308 -0.00020328435 0.00089322845 -0.00018269396 0.00082706078 0.061791923 -0.934919
8319000000 -0.73444051 -0.55646741 -7.3385636e-005 0.00075358414 -2.9492278e-006 0.00085669843 0.047215369 -0.93631274
8330000000 -0.74431449 -0.54203886 -6.2609135e-005 0.00093317591 -6.8587186e-005 0.00082389801 0.032143675 -0.93551052
8341000000 -0.75305325 -0.52734619 3.4328259e-005 0.00087039632 -0.00013855603 0.00083180645 0.018353162 -0.93693238
8352000000 -0.76051396 -0.51264602 -9.5101503e-005 0.00076859782 -0.00015861468 0.00082849129 0.0040143547 -0.93672544
8363000000 -0.76750094 -0.50066435 4.8461101e-005 0.0011277975 7.3725321e-005 0.00092278206 -0.010223038 -0.93704081
8374000000 -0.7754637 -0.48736537 2.1669264e-005 0.00096825173 -4.3737804e-005 0.00076984416 -0.024448829 -0.93668246
8385000000 -0.78361803 -0.47560671 -0.0001312706 0.00078833959 -5.1444942e-005 0.00090353645 -0.037782609 -0.93636411
8396000000 -0.79359972 -0.46228659 -8.4915409e-005 0.00089189672 -0.00014993302 0.00095700542 -0.051973063 -0.93603116
8407000000 -0.80251288 -0.44753125 -2.5379113e-005 0.00086992671 -2.3629813e-005 0.0008229434 -0.065737084 -0.93426186
8418000000 -0.81126326 -0.43246529 5.8781505e-005 0.00077601499 1.4557249e-005 0.00091807585 -0.079890855 -0.93370742
8429000000 -0.81919909 -0.4175311 -8.3801342e-006 0.00090280082 -3.899524e-005 0.00090736768 -0.093579628 -0.93196326
8440000000 -0.82510638 -0.40064946 -2.7872153e-005 0.0011106662 3.3486249e-005 0.00092767348 -0.10782305 -0.93006146
8451000000 -0.83122706 -0.38661504 1.6723359e-005 0.00084330828 -0.00011901178 0.00094180449 -0.12212963 -0.92832959
8462000000 -0.83694577 -0.37240291 9.9167526e-005 0.00086796086 2.7457481e-006 0.00084767037 -0.13627972 -0.92582273
8473000000 -0.84344888 -0.3587535 -1.1900755e-006 0.00090501987 7.8228142e-005 0.00086664548 -0.15114817 -0.922396
8484000000 -0.84971619 -0.34562358 -7.4415162e-005 0.00099559594 0.00015647608 0.00088358863 -0.16575778 -0.9200393
8495000000 -0.85638291 -0.33128962 6.8117843e-005 0.00087447115 -3.1534742e-007 0.0010116186 -0.18000825 -0.9171108
8506000000 -0.86348212 -0.31544998 0.00010714013 0.0010099228 9.9115408e-005 0.00096475874 -0.19364214 -0.9140166
8517000000 -0.86852175 -0.29907316 0.00014063706 0.0010473795 -9.710142e-006 0.00076567387 -0.20851903 -0.91142505
8528000000 -0.87240291 -0.28275418 0.0001171753 0.00074299221 6.0917795e-005 0.0008383047 -0.22223797 -0.90751934
8539000000 -0.87643653 -0.26682013 0.00019385296 0.0008796819 0.00016828848 0.0008051247 -0.23601985 -0.90488368
8550000000 -0.87997782 -0.25191396 0.00026467445 0.00084608357 0.00020738335 0.00096388679 -0.24990822 -0.90067172
8561000000 -0.8822819 -0.23737237 9.6710595e-005 0.00095328066 0.00014090404 0.00082281284 -0.26360235 -0.8961187
8572000000 -0.88654232 -0.22305286 0.00016059376 0.00087033299 0.00016677522 0.00079987349 -0.27671358 -0.89239728
8583000000 -0.89169788 -0.20830192 0.00012604965 0.00099527172 9.6852455e-005 0.00086765364 -0.29056329 -0.88744551
8594000000 -0.89616907 -0.19254518 0.00021230178 0.0010864612 0.00028036037 0.00098655745 -0.30326185 -0.88324463
8605000000 -0.90102458 -0.17576171 0.00027438099 0.00095623074 0.00023886558 0.00092500413 -0.31686988 -0.87841672
8616000000 -0.90409029 -0.15782663 0.00032350267 0.00082289713 0.0001761181 0.00091383071 -0.33000633 -0.87254995
8627000000 -0.9062466 -0.14126101 0.00025469344 0.00093135762 0.0004113958 0.00098148501 -0.342935 -0.86769134
8638000000 -0.90713185 -0.12479082 0.00033490392 0.001011246 0.00023879731 0.00089420355 -0.35630116 -0.86245328
8649000000 -0.90728748 -0.10984917 0.00031293489 0.0009405585 0.00032543606 0.0010696047 -0.36986896 -0.85650218
8660000000 -0.90796411 -0.094754525 0.00029053143 0.0008633174 0.00025845427 0.0010023718 -0.38335967 -0.85109967
8671000000 -0.90987223 -0.081215575 0.00045021618 0.0011390765 0.00040528481 0.00090835092 -0.39663213 -0.84449166
8682000000 -0.91214418 -0.066015348 0.00037025454 0.00093794725 0.00046818983 0.00087783346 -0.41046584 -0.83758235
8693000000 -0.91541439 -0.051332656 0.00040119974 0.00092218316 0.00039669898 0.00090145878 -0.42364168 -0.82992542
8704000000 -0.9176504 -0.034047522 0.00060454512 0.0009094706 0.00046281767 0.00089839578 -0.43665051 -0.82301623
8715000000 -0.91820478 -0.017283065 0.00042678075 0.00095061137 0.00023881475 0.0010324115 -0.44954929 -0.81671989
8726000000 -0.91723746 -2.1507047e-005 0.00049908651 0.00083107525 0.00044606344 0.00096690521 -0.46212554 -0.8088454
8737000000 -0.91523141 0.016880615 0.0004206404 0.00095970061 0.00057211047 0.00083870179 -0.47413319 -0.80206519
8748000000 -0.91354084 0.031976562 0.00044156169 0.00078586768 0.00038809425 0.00094373885 -0.48631421 -0.79476172
8759000000 -0.91195422 0.047211237 0.0004273692 0.0008395139 0.00044721097 0.00086789095 -0.49829119 -0.78737378
8770000000 -0.91113937 0.061809484 0.0003454941 0.00086565944 0.00044087454 0.00075676211 -0.51170379 -0.77999878
8781000000 -0.91046512 0.077154659 0.00038571068 0.00080483966 0.0005283053 0.00077061576 -0.52363056 -0.77164859
8792000000 -0.91038758 0.092561178 0.00058789056 0.00088676141 0.00053064089 0.00079234166 -0.53501564 -0.76310122
8803000000 -0.90996796 0.10950925 0.00050627743 0.00087867014 0.00046571562 0.00091885211 -0.54745096 -0.75367528
8814000000 -0.90721798 0.12545523 0.000759191 0.00067754806 0.00058116682 0.00086776889 -0.55794531 -0.74464333
8825000000 -0.90430659 0.14240834 0.00063948886 0.00083746103 0.00046498346 0.00075741409 -0.56993771 -0.73521107
8836000000 -0.90169305 0.15795489 0.00074321532 0.00072729163 0.00056555338 0.0009026003 -0.58106166 -0.72601306
8847000000 -0.89695638 0.17284878 0.00062796311 0.0007466462 0.00052224298 0.00071560091 -0.59258205 -0.71678632
8858000000 -0.89396673 0.1865651 0.00071107392 0.00080417312 0.00079042913 0.00089310121 -0.60413712 -0.70677209
8869000000 -0.89121586 0.20036049 0.00057684892 0.0009074682 0.00074103137 0.00092651654 -0.61505014 -0.69655806
8880000000 -0.88928956 0.21498975 0.000663794 0.00089970219 0.00069532078 0.00080429198 -0.62629646 -0.68747121
8891000000 -0.88690001 0.23083107 0.00065920106 0.00094635622 0.00078017998 0.00081885542 -0.63809872 -0.6765883
8902000000 -0.88266242 0.24668285 0.0005724192 0.00094963098 0.00071713998 0.00076963019 -0.64842862 -0.66657138
8913000000 -0.87823659 0.2628966 0.00070974149 0.00096375495 0.00062674435 0.00092674681 -0.65822256 -0.65654415
8924000000 -0.87239659 0.27877879 0.00079964614 0.00079104974 0.00072129141 0.00080836087 -0.66856253 -0.64611423
8935000000 -0.86577785 0.29323813 0.00073300482 0.00078522559 0.00075770234 0.00077487744 -0.67782897 -0.6354149
8946000000 -0.85972673 0.30682531 0.00080940838 0.00051537366 0.00083178136 0.00077760866 -0.68767381 -0.62525725
8957000000 -0.8542853 0.32031646 0.00075239217 0.00068133289 0.00088005728 0.0004888468 -0.69720823 -0.61431837
8968000000 -0.84936589 0.33353925 0.00071880559 0.00062369835 0.00079915696 0.00073061651 -0.70688599 -0.60258633
8979000000 -0.84512711 0.34781969 0.00076973485 0.00041502813 0.00093528588 0.00071720057 -0.71636778 -0.59162629
8990000000 -0.84059608 0.36257583 0.00073206372 0.00067597436 0.00083654304 0.00055474351 -0.7262584 -0.57980657
9001000000 -0.83528823 0.37912306 0.00082094606 0.00055034884 0.00076789234 0.00065222348 -0.73445761 -0.56794769
9012000000 -0.82853061 0.39398211 0.00076454232 0.00054128544 0.00070937234 0.00062392745 -0.74363035 -0.55542958
9023000000 -0.82017839 0.40942776 0.0010023706 0.00054284406 0.00070193026 0.00058348756 -0.75249618 -0.54351884
9034000000 -0.81139129 0.42286232 0.00093969493 0.0006336064 0.00092929043 0.00045805707 -0.76083446 -0.53166771
9045000000 -0.80320513 0.4347257 0.0008548054 0.00061764242 0.00078099669 0.00075051375 -0.76916051 -0.51889634
9056000000 -0.79612464 0.44635811 0.00091860059 0.00045278473 0.00078792719 0.0005947852 -0.77757466 -0.50541186
9067000000 -0.78982019 0.45799035 0.00076312857 0.00057963835 0.00063754874 0.00055677077 -0.78557122 -0.49318966
9078000000 -0.78402662 0.47068915 0.00089561578 0.0005843736 0.00094551919 0.00051164575 -0.79328358 -0.48031884
9089000000 -0.77705836 0.48400462 0.00083308516 0.00052208098 0.00090768334 0.0006201879 -0.80104715 -0.46747318
9100000000 -0.76913619 0.49908003 0.00086721795 0.000546458 0.0008469962 0.00054847944 -0.8090362 -0.45438859
9111000000 -0.75976974 0.51275361 0.0009273446 0.0005239413 0.00095130876 0.00056172948 -0.81530458 -0.44188547
9122000000 -0.75034201 0.52659547 0.00084535673 0.0003663511 0.00084883539 0.00058738835 -0.82328594 -0.42869306
9133000000 -0.73933077 0.53946483 0.00090256351 0.00055832608 0.00099459745 0.00058989535 -0.83007723 -0.41609257
9144000000 -0.72860867 0.55114239 0.00091398094 0.00055471162 0.00087423995 0.00053328724 -0.83647555 -0.40331301
9155000000 -0.71992379 0.56194204 0.0009856082 0.00045073361 0.00089833327 0.00038110503 -0.84237641 -0.38970047
9166000000 -0.71099609 0.57270408 0.00087096775 0.00053073221 0.00096566021 0.00044749843 -0.84910363 -0.37577999
9177000000 -0.70268577 0.58459574 0.00084023189 0.00044683056 0.00076943525 0.00048787551 -0.85444778 -0.36117235
9188000000 -0.69402277 0.59654111 0.00094409258 0.00043349733 0.000887 0.00043026873 -0.85958368 -0.34693629
9199000000 -0.68472528 0.6095379 0.00098379573 0.00035160084 0.00097739627 0.00044950479 -0.86491722 -0.33304209
9210000000 -0.67406923 0.62092048 0.00087245146 0.0004747927 0.00099499139 0.00048100486 -0.87041551 -0.31822968
9221000000 -0.66320372 0.63210988 0.00094037852 0.00045194835 0.001016068 0.0004282174 -0.87483567 -0.30376163
9232000000 -0.65130639 0.64246309 0.00091043615 0.00021882339 0.00095441018 0.00044607191 -0.87966818 -0.28954992
9243000000 -0.6402775 0.65199757 0.00083639956 0.00038821017 0.0010528106 0.00034303893 -0.88474733 -0.27499878
9254000000 -0.62978029 0.66118634 0.0011899685 0.0005550136 0.0010521587 0.00047407387 -0.88871509 -0.26035348
9265000000 -0.62056619 0.67146838 0.0010727609 0.00042223671 0.00093939982 0.00034445871 -0.89243609 -0.24598534
9276000000 -0.60985416 0.68135369 0.00085681188 0.00033947412 0.0010354959 0.00036350748 -0.89732516 -0.23186004
9287000000 -0.59952062 0.6930359 0.0010653756 0.00042695028 0.0011249859 0.00022556912 -0.89982551 -0.21695393
9298000000 -0.58770585 0.70407158 0.00092230801 0.0002753911 0.00098217221 0.00028517397 -0.90484846 -0.2020894
9309000000 -0.57448906 0.71494472 0.0010207088 0.00022580648 0.0011441573 0.00023744792 -0.90776122 -0.18760699
9320000000 -0.56137937 0.72465122 0.001099287 0.00021208781 0.0010157339 0.00030137759 -0.91013843 -0.17269103
9331000000 -0.54827857 0.73247248 0.0010878113 0.00028755359 0.00085741404 0.00025512424 -0.91224164 -0.15888205
9342000000 -0.53566438 0.73991877 0.0010109461 0.0002684067 0.0010079836 0.00035771809 -0.91565609 -0.14350313
9353000000 -0.5245201 0.74702609 0.0011838598 0.00030357094 0.0011725952 0.00026584737 -0.91690719 -0.12905151
9364000000 -0.51371413 0.75492835 0.00093136798 0.00026476925 0.0011689008 0.00024882905 -0.91981596 -0.11315644
9375000000 -0.50271088 0.76319599 0.00086566561 0.00015531709 0.0010638119 0.00031822707 -0.9206652 -0.097769901
9386000000 -0.49219963 0.77307928 0.0010497043 -2.2145632e-005 0.0011030232 9.8469369e-005 -0.92137152 -0.082223341
9397000000 -0.47889811 0.7829482 0.001017138 8.5104082e-005 0.0010844721 0.0001474442 -0.92274624 -0.066442728
9408000000 -0.46536475 0.79134762 0.0011066309 0.00013010103 0.0011844657 0.00011911047 -0.92282522 -0.050971899
9419000000 -0.45092246 0.79941791 0.00098291447 5.2355477e-005 0.0011145687 9.3712326e-005 -0.9240495 -0.036195487
9430000000 -0.43733114 0.80612487 0.0010511389 8.0473204e-005 0.00093056983 0.00017461137 -0.92491555 -0.020907329
9441000000 -0.42395848 0.81154501 0.0010973027 0.00010860676 0.0011073364 0.0001712018 -0.9243322 -0.0062105451
9452000000 -0.41062826 0.81679243 0.0010906607 5.9675327e-005 0.00090842228 9.0829024e-005 -0.92507738 0.0085641155
9463000000 -0.39857608 0.82367522 0.000986901 0.00011410936 0.0011590708 0.00013708063 -0.9254483 0.023933586
9474000000 -0.38661414 0.82970375 0.0010369091 9.2095172e-005 0.0010298585 0.00015314143 -0.92517895 0.039391235
9485000000 -0.37408051 0.8369059 0.0011421369 9.2479415e-005 0.0011293618 4.8523998e-005 -0.92490762 0.054507326
9496000000 -0.36109921 0.84444982 0.0010593837 7.245571e-005 0.0010249846 0.00012312966 -0.92356253 0.070606664
9507000000 -0.34565634 0.8517012 0.0010921789 3.2309556e-005 0.0011839654 -1.9495066e-005 -0.92235667 0.085164733
9518000000 -0.33128613 0.85733694 0.0009789255 6.5272718e-005 0.0010610272 6.8761066e-005 -0.9203369 0.10012092
9529000000 -0.31612736 0.86236006 0.0010692164 3.5614492e-005 0.0010191845 -6.6077017e-005 -0.9175204 0.11502615
9540000000 -0.30150074 0.86609417 0.0010146856 2.7729615e-005 0.0011674225 0.00016177613 -0.91579437 0.13031177
9551000000 -0.28876626 0.87064481 0.0010566887 -7.3027382e-005 0.001119301 8.3811174e-006 -0.91343808 0.1461509
9562000000 -0.2751154 0.87478232 0.0011390137 -3.872472e-005 0.00099052198 4.0806801e-005 -0.91037798 0.16119298
9573000000 -0.26161715 0.88011646 0.0010871965 -5.0645955e-005 0.0011807461 -4.075484e-005 -0.90707302 0.17710063
9584000000 -0.24807069 0.88544065 0.001145095 2.1535638e-005 0.0011681324 -5.3510379e-005 -0.90383613 0.19231468
9595000000 -0.23291104 0.89028198 0.0012106382 -0.00017795857 0.0010749481 3.4627763e-005 -0.90095717 0.20735939
9606000000 -0.21751191 0.89466268 0.0010278526 -5.809822e-005 0.0012942853 -3.6217971e-005 -0.89685804 0.22360516
9617000000 -0.20168088 0.89710981 0.0010788452 -0.00015633559 0.0010980543 5.7171041e-005 -0.89219183 0.23779714
9628000000 -0.18620494 0.89973432 0.0011497528 -0.00013154781 0.0011858268 -0.00020873723 -0.88934869 0.25284883
9639000000 -0.17210852 0.90034819 0.0012118503 -0.00024829677 0.0010532438 -0.00022793979 -0.88606465 0.2680428
9650000000 -0.15867685 0.90189213 0.0010725864 -0.00017564079 0.0011274529 -6.1447909e-006 -0.88090879 0.2820051
9661000000 -0.14558908 0.90426224 0.0010819786 -0.00012393836 0.0010743872 -9.6759082e-005 -0.8768326 0.29624528
9672000000 -0.13182263 0.90662688 0.0011871842 -0.00015020301 0.0011261152 -0.00022788942 -0.87194711 0.30992576
9683000000 -0.11737711 0.91067255 0.0011047916 -0.0002263175 0.0010664889 -0.00035943187 -0.86657351 0.32539469
9694000000 -0.10166305 0.91369361 0.0012317696 -7.3921336e-005 0.0010618407 -0.0001067226 -0.860762 0.33971614
9705000000 -0.086293429 0.91621131 0.0011966669 -0.00031348524 0.0010013976 -0.00023473649 -0.85463923 0.35431591
9716000000 -0.070021033 0.91673434 0.00096894446 -0.00027164485 0.0010404082 -0.0002040407 -0.8478803 0.36848873
9727000000 -0.054705799 0.9166047 0.0011276631 -0.00028682925 0.0011950226 -0.00031760972 -0.8407988 0.38243607
9738000000 -0.040097069 0.91599 0.0012530859 -0.00031083683 0.0012676013 -0.00023895079 -0.83398479 0.39681661
9749000000 -0.026301285 0.91551286 0.0010653469 -0.00039133153 0.0010799369 -0.00023103095 -0.82793069 0.41046855
9760000000 -0.013223187 0.91602731 0.001338186 -0.00024172115 0.0011566209 -0.00038731506 -0.82011527 0.42377234
9771000000 -0.00062461401 0.91751885 0.0012727578 -0.00033995564 0.001113402 -0.00022457447 -0.8131789 0.43812805
9782000000 0.014747798 0.91943163 0.0012237079 -0.00043155474 0.0010804004 -0.00051177444 -0.80581439 0.45304799
9793000000 0.029263286 0.92007565 0.0011769014 -0.00022822745 0.0010757835 -0.00037493548 -0.79820663 0.46636596
9804000000 0.046152253 0.92082459 0.0011707213 -0.00041814346 0.0011305091 -0.00036451654 -0.78903544 0.47942612
9815000000 0.062261064 0.91926152 0.0010872373 -0.00021565102 0.0012487104 -0.00041658117 -0.7815541 0.49342251
9826000000 0.07741487 0.91583186 0.0011284349 -0.00044957909 0.0011669094 -0.00036471922 -0.77304107 0.50620872
9837000000 0.091795988 0.91316116 0.0011106177 -0.00047623189 0.0011150924 -0.00047210336 -0.76484716 0.51952821
9848000000 0.10617088 0.91168237 0.0010733739 -0.00025240303 0.0011641273 -0.00048969098 -0.7564199 0.53207666
9859000000 0.11900261 0.90977347 0.0011945433 -0.00038085697 0.0011558083 -0.00041167974 -0.74732226 0.54410338
9870000000 0.13276748 0.90823889 0.0012582346 -0.00039496689 0.0011196746 -0.00059578411 -0.73894846 0.55664235
9881000000 0.14769235 0.90798265 0.0011225906 -0.00038327815 0.0010526668 -0.00031409701 -0.72904956 0.56896442
