! TOUCHSTONE file generated by CST MICROWAVE STUDIO
! Date and time: Wed Oct 17 00:53:23 2018
! Project name: 16 - Reflect.cst
! Parameters = {Copper_W=0.017; Ex=0.6; G=0.15; GCPW_U_1_End=1; GCPW_U_2_End=3.76702; GCPW_U_3_End=6.53404; GCPW_Ucentre=6.53404; GCPW_VCentre=7.5; GCPW_V_1_End=7.5; GCPW_V_2_End=0.347476; GCPW_V_3_End=0.347476; GCPW_Via_R=0.15; GCPW_Via_U=6.23404; GCPW_Via_V=7.2; GCPW_Via_Wmax=0.017; GCPW_Via_Wmin=0.228; Ground_U=13.0681; Ground_V=15; Ground_Wmax=0.228; Ground_Wmin=0.211; K=5.22; L_1_E=2.76702; L_1_E_Umax=6.53404; L_1_E_Umin=3.76702; L_1_E_Vmax=0.197476; L_1_E_Vmin=0.197476; L_2_E=2.76702; L_2_E_Umax=3.76702; L_2_E_Umin=1; L_2_E_Vmax=0.229776; L_2_E_Vmin=0.197476; L_3_E=1; L_3_E_Umax=1; L_3_E_Umin=0; L_3_E_Vmax=0.229776; L_3_E_Vmin=0.229776; L_4_E=0; L_4_E_Umax=0; L_4_E_Umin=0; Mini_Factor=0.1; R_Screw=0.99; Reflect_Via_Ucentre=0.15; Reflect_Via_Umax=0.4; Reflect_Via_Umin=0; Reflect_Via_Vcentre=0; Reflect_Via_Vmax=0.25; Reflect_Via_Vmin=0.25; S_1=0.05; Substrate_U=13.0681; Substrate_V=15; Substrate_W=0.211; U_Screw=3.74404; V_Mini=0.065; V_Screw=4.765; Via_V_Spacing=0.26; Via_Wmax=0.017; Via_Wmin=0.228; Via_radius=0.15; W_1_E=0.394952; W_2_E=0.394952; W_3_E=0.459553; W_4_E=0; W_4_E_Vmax=0.229776; W_4_E_Vmin=0.229776; Width_Vary=0.1; Wmax_Screw=0.017; Wmin_Screw=0.228; Z0_Umax=0; Z0_Umin=0; Z12_Umax=0; Z12_Umin=0; Z1_Ex_Umax=0.53887; Z1_Ex_Umin=-0.53887; Z1_Ex_Vmax=1.71008; Z1_Ex_Vmin=0.767211; Z1_Mini_Umax=0.244941; Z1_Mini_Umin=-0.244941; Z1_Mini_Vmax=0.413635; Z1_Mini_Vmin=0.229776; Z1_Umax=1.2247; Z1_Umin=-1.2247; Z1_Via_Ucentre=-0.837353; Z1_Via_Vcentre=2.75838; Z1_Vmax=3.05838; Z1_Vmin=0.413635; Z23_Umax=0; Z23_Umin=0; Z2_Ex_Umax=0.54175; Z2_Ex_Umin=-0.54175; Z2_Ex_Vmax=1.74769; Z2_Ex_Vmin=0.788343; Z2_Mini_Umax=0.24625; Z2_Mini_Umin=-0.24625; Z2_Mini_Vmax=0.428588; Z2_Mini_Vmin=0.241515; Z2_Umax=1.23125; Z2_Umin=-1.23125; Z2_Via_Ucentre=-0.840625; Z2_Via_Vcentre=2.81955; Z2_Vmax=3.11956; Z2_Vmin=0.428588; Z34_Umax=0; Z34_Umin=0; Z3_Ex_Umax=0.548937; Z3_Ex_Umin=-0.548937; Z3_Ex_Vmax=1.72391; Z3_Ex_Vmin=0.765012; Z3_Mini_Umax=0.249517; Z3_Mini_Umin=-0.249517; Z3_Mini_Vmax=0.405427; Z3_Mini_Vmin=0.218443; Z3_Umax=1.24758; Z3_Umin=-1.24758; Z3_Via_Ucentre=-0.848792; Z3_Via_Vcentre=2.79512; Z3_Vmax=3.09512; Z3_Vmin=0.405427; l0=0; l1=2.8286; l12=0; l2=2.87804; l23=0; l3=2.87668; l34=0; left_origin_U=0; w0=0.459553; w1=2.44941; w12=0.51453; w2=2.4625; w23=0.48303; w3=2.49517; w34=0.436886}
! Header version: 2015
! Port assignment regex: !\s*Touchstone port\s*([0-9]+)\s*=\s*CST MWS port\s*([0-9]+)\s*\(\"(.*)\"\)(\s*mode\s*([0-9]+))?.*
! Touchstone port assignment:
! Touchstone port 1 = CST MWS port 1 ("")
! Touchstone port 2 = CST MWS port 2 ("")
# GHz S RI R 50
10                      0.144244       -0.972454     1.91043e-006   -1.62608e-005     2.48039e-006   -1.47072e-005         0.235361    -0.000383432
10.004                  0.142534       -0.972704     1.89406e-006   -1.62548e-005     2.46212e-006   -1.47121e-005          0.23556    -0.000383585
10.008                  0.140823       -0.972951     1.87768e-006   -1.62487e-005     2.44382e-006    -1.4717e-005         0.235758    -0.000383738
10.012                  0.139113       -0.973195     1.86129e-006   -1.62427e-005     2.42552e-006   -1.47219e-005         0.235957    -0.000383891
10.016                  0.137401       -0.973436     1.84489e-006   -1.62367e-005      2.4072e-006   -1.47268e-005         0.236155    -0.000384044
10.02                    0.13569       -0.973673     1.82849e-006   -1.62307e-005     2.38886e-006   -1.47316e-005         0.236353    -0.000384198
10.024                  0.133978       -0.973908     1.81208e-006   -1.62248e-005     2.37052e-006   -1.47364e-005         0.236551    -0.000384351
10.028                  0.132266        -0.97414     1.79566e-006   -1.62188e-005     2.35215e-006   -1.47412e-005         0.236749    -0.000384505
10.032                  0.130553       -0.974368     1.77923e-006   -1.62129e-005     2.33378e-006   -1.47459e-005         0.236947    -0.000384659
10.036                   0.12884       -0.974594      1.7628e-006    -1.6207e-005     2.31539e-006   -1.47506e-005         0.237145    -0.000384812
10.04                   0.127127       -0.974817     1.74636e-006   -1.62011e-005     2.29699e-006   -1.47553e-005         0.237343    -0.000384966
10.044                  0.125413       -0.975036     1.72991e-006   -1.61952e-005     2.27858e-006   -1.47599e-005          0.23754     -0.00038512
10.048                    0.1237       -0.975253     1.71345e-006   -1.61894e-005     2.26015e-006   -1.47645e-005         0.237738    -0.000385274
10.052                  0.121985       -0.975466     1.69699e-006   -1.61835e-005     2.24171e-006   -1.47691e-005         0.237935    -0.000385428
10.056                  0.120271       -0.975677     1.68052e-006   -1.61777e-005     2.22325e-006   -1.47736e-005         0.238132    -0.000385582
10.06                   0.118556       -0.975884     1.66404e-006   -1.61719e-005     2.20479e-006   -1.47781e-005          0.23833    -0.000385737
10.064                  0.116841       -0.976088     1.64756e-006   -1.61661e-005     2.18631e-006   -1.47826e-005         0.238527    -0.000385891
10.068                  0.115126       -0.976289     1.63107e-006   -1.61603e-005     2.16781e-006   -1.47871e-005         0.238724    -0.000386046
10.072                  0.113411       -0.976488     1.61457e-006   -1.61546e-005     2.14931e-006   -1.47915e-005         0.238921      -0.0003862
10.076                  0.111695       -0.976683     1.59806e-006   -1.61488e-005     2.13079e-006   -1.47959e-005         0.239117    -0.000386355
10.08                   0.109979       -0.976875     1.58155e-006   -1.61431e-005     2.11226e-006   -1.48003e-005         0.239314    -0.000386509
10.084                  0.108263       -0.977064     1.56503e-006   -1.61374e-005     2.09371e-006   -1.48046e-005         0.239511    -0.000386664
10.088                  0.106546        -0.97725      1.5485e-006   -1.61317e-005     2.07515e-006   -1.48089e-005         0.239707    -0.000386819
10.092                   0.10483       -0.977433     1.53197e-006    -1.6126e-005     2.05658e-006   -1.48132e-005         0.239904    -0.000386974
10.096                  0.103113       -0.977613     1.51542e-006   -1.61203e-005       2.038e-006   -1.48174e-005           0.2401    -0.000387129
10.1                    0.101395        -0.97779     1.49888e-006   -1.61146e-005     2.01941e-006   -1.48216e-005         0.240296    -0.000387284
10.104                  0.099678       -0.977963     1.48232e-006    -1.6109e-005      2.0008e-006   -1.48258e-005         0.240493     -0.00038744
10.108                 0.0979604       -0.978134     1.46576e-006   -1.61033e-005     1.98218e-006   -1.48299e-005         0.240689    -0.000387595
10.112                 0.0962425       -0.978302     1.44918e-006   -1.60977e-005     1.96355e-006    -1.4834e-005         0.240885     -0.00038775
10.116                 0.0945245       -0.978466     1.43261e-006   -1.60921e-005      1.9449e-006   -1.48381e-005          0.24108    -0.000387906
10.12                  0.0928062       -0.978628     1.41602e-006   -1.60865e-005     1.92625e-006   -1.48421e-005         0.241276    -0.000388062
10.124                 0.0910878       -0.978787     1.39943e-006   -1.60809e-005     1.90758e-006   -1.48462e-005         0.241472    -0.000388217
10.128                 0.0893692       -0.978942     1.38283e-006   -1.60753e-005      1.8889e-006   -1.48501e-005         0.241667    -0.000388373
10.132                 0.0876503       -0.979095     1.36623e-006   -1.60698e-005     1.87021e-006   -1.48541e-005         0.241863    -0.000388529
10.136                 0.0859313       -0.979244     1.34961e-006   -1.60642e-005      1.8515e-006    -1.4858e-005         0.242058    -0.000388685
10.14                  0.0842122        -0.97939     1.33299e-006   -1.60587e-005     1.83279e-006   -1.48619e-005         0.242254    -0.000388841
10.144                 0.0824928       -0.979534     1.31637e-006   -1.60532e-005     1.81406e-006   -1.48658e-005         0.242449    -0.000388997
10.148                 0.0807733       -0.979674     1.29973e-006   -1.60477e-005     1.79532e-006   -1.48696e-005         0.242644    -0.000389153
10.152                 0.0790537       -0.979811     1.28309e-006   -1.60422e-005     1.77657e-006   -1.48734e-005         0.242839     -0.00038931
10.156                 0.0773339       -0.979945     1.26644e-006   -1.60367e-005     1.75781e-006   -1.48771e-005         0.243034    -0.000389466
10.16                  0.0756139       -0.980077     1.24979e-006   -1.60312e-005     1.73903e-006   -1.48809e-005         0.243229    -0.000389623
10.164                 0.0738938       -0.980205     1.23313e-006   -1.60257e-005     1.72025e-006   -1.48846e-005         0.243423    -0.000389779
10.168                 0.0721736        -0.98033     1.21646e-006   -1.60203e-005     1.70145e-006   -1.48882e-005         0.243618    -0.000389936
10.172                 0.0704532       -0.980452     1.19978e-006   -1.60148e-005     1.68264e-006   -1.48919e-005         0.243813    -0.000390093
10.176                 0.0687327       -0.980571      1.1831e-006   -1.60094e-005     1.66382e-006   -1.48955e-005         0.244007    -0.000390249
10.18                  0.0670121       -0.980687     1.16641e-006   -1.60039e-005     1.64499e-006    -1.4899e-005         0.244201    -0.000390406
10.184                 0.0652914       -0.980799     1.14971e-006   -1.59985e-005     1.62615e-006   -1.49026e-005         0.244396    -0.000390563
10.188                 0.0635706       -0.980909     1.13301e-006   -1.59931e-005      1.6073e-006   -1.49061e-005          0.24459    -0.000390721
10.192                 0.0618496       -0.981016      1.1163e-006   -1.59877e-005     1.58843e-006   -1.49096e-005         0.244784    -0.000390878
10.196                 0.0601286        -0.98112     1.09958e-006   -1.59823e-005     1.56956e-006    -1.4913e-005         0.244978    -0.000391035
10.2                   0.0584075        -0.98122     1.08286e-006   -1.59769e-005     1.55067e-006   -1.49164e-005         0.245172    -0.000391193
10.204                 0.0566863       -0.981318     1.06613e-006   -1.59715e-005     1.53178e-006   -1.49198e-005         0.245365     -0.00039135
10.208                  0.054965       -0.981413     1.04939e-006   -1.59662e-005     1.51287e-006   -1.49231e-005         0.245559    -0.000391508
10.212                 0.0532436       -0.981504     1.03265e-006   -1.59608e-005     1.49395e-006   -1.49264e-005         0.245753    -0.000391665
10.216                 0.0515222       -0.981593      1.0159e-006   -1.59555e-005     1.47502e-006   -1.49297e-005         0.245946    -0.000391823
10.22                  0.0498006       -0.981678     9.99141e-007   -1.59501e-005     1.45609e-006    -1.4933e-005          0.24614    -0.000391981
10.224                 0.0480791       -0.981761     9.82377e-007   -1.59448e-005     1.43714e-006   -1.49362e-005         0.246333    -0.000392139
10.228                 0.0463575        -0.98184     9.65607e-007   -1.59394e-005     1.41818e-006   -1.49394e-005         0.246526    -0.000392297
10.232                 0.0446358       -0.981916     9.48829e-007   -1.59341e-005     1.39921e-006   -1.49425e-005         0.246719    -0.000392455
10.236                 0.0429141        -0.98199     9.32045e-007   -1.59288e-005     1.38023e-006   -1.49456e-005         0.246912    -0.000392613
10.24                  0.0411923        -0.98206     9.15255e-007   -1.59235e-005     1.36124e-006   -1.49487e-005         0.247105    -0.000392771
10.244                 0.0394705       -0.982127     8.98457e-007   -1.59182e-005     1.34224e-006   -1.49517e-005         0.247298     -0.00039293
10.248                 0.0377487       -0.982191     8.81654e-007   -1.59129e-005     1.32323e-006   -1.49548e-005         0.247491    -0.000393088
10.252                 0.0360269       -0.982252     8.64843e-007   -1.59076e-005     1.30421e-006   -1.49577e-005         0.247683    -0.000393247
10.256                  0.034305        -0.98231     8.48026e-007   -1.59023e-005     1.28518e-006   -1.49607e-005         0.247876    -0.000393406
10.26                  0.0325832       -0.982365     8.31203e-007    -1.5897e-005     1.26614e-006   -1.49636e-005         0.248068    -0.000393564
10.264                 0.0308613       -0.982417     8.14373e-007   -1.58918e-005     1.24709e-006   -1.49665e-005         0.248261    -0.000393723
10.268                 0.0291394       -0.982466     7.97536e-007   -1.58865e-005     1.22803e-006   -1.49693e-005         0.248453    -0.000393882
10.272                 0.0274175       -0.982512     7.80693e-007   -1.58812e-005     1.20896e-006   -1.49722e-005         0.248645    -0.000394041
10.276                 0.0256957       -0.982555     7.63844e-007    -1.5876e-005     1.18988e-006   -1.49749e-005         0.248837      -0.0003942
10.28                  0.0239738       -0.982595     7.46988e-007   -1.58707e-005     1.17079e-006   -1.49777e-005         0.249029     -0.00039436
10.284                  0.022252       -0.982632     7.30125e-007   -1.58655e-005      1.1517e-006   -1.49804e-005         0.249221    -0.000394519
10.288                 0.0205302       -0.982666     7.13257e-007   -1.58602e-005     1.13259e-006   -1.49831e-005         0.249413    -0.000394678
10.292                 0.0188084       -0.982696     6.96381e-007    -1.5855e-005     1.11347e-006   -1.49857e-005         0.249605    -0.000394838
10.296                 0.0170867       -0.982724       6.795e-007   -1.58498e-005     1.09435e-006   -1.49884e-005         0.249796    -0.000394997
10.3                    0.015365       -0.982749     6.62612e-007   -1.58445e-005     1.07521e-006   -1.49909e-005         0.249988    -0.000395157
10.304                 0.0136434        -0.98277     6.45718e-007   -1.58393e-005     1.05607e-006   -1.49935e-005         0.250179    -0.000395317
10.308                 0.0119218       -0.982789     6.28818e-007   -1.58341e-005     1.03692e-006    -1.4996e-005         0.250371    -0.000395477
10.312                 0.0102002       -0.982805     6.11911e-007   -1.58289e-005     1.01776e-006   -1.49985e-005         0.250562    -0.000395637
10.316                0.00847877       -0.982817     5.94998e-007   -1.58237e-005     9.98589e-007   -1.50009e-005         0.250753    -0.000395797
10.32                 0.00675736       -0.982827     5.78079e-007   -1.58184e-005     9.79411e-007   -1.50034e-005         0.250944    -0.000395957
10.324                0.00503603       -0.982833     5.61153e-007   -1.58132e-005     9.60224e-007   -1.50057e-005         0.251135    -0.000396117
10.328                0.00331478       -0.982837     5.44222e-007    -1.5808e-005     9.41028e-007   -1.50081e-005         0.251326    -0.000396278
10.332                0.00159361       -0.982837     5.27284e-007   -1.58028e-005     9.21824e-007   -1.50104e-005         0.251517    -0.000396438
10.336               -0.00012747       -0.982834      5.1034e-007   -1.57976e-005     9.02611e-007   -1.50127e-005         0.251708    -0.000396598
10.34                -0.00184846       -0.982829      4.9339e-007   -1.57924e-005      8.8339e-007   -1.50149e-005         0.251898    -0.000396759
10.344               -0.00356934        -0.98282     4.76434e-007   -1.57872e-005     8.64161e-007   -1.50171e-005         0.252089     -0.00039692
10.348               -0.00529012       -0.982808     4.59472e-007    -1.5782e-005     8.44924e-007   -1.50193e-005         0.252279    -0.000397081
10.352               -0.00701079       -0.982794     4.42504e-007   -1.57768e-005     8.25678e-007   -1.50215e-005          0.25247    -0.000397241
10.356               -0.00873134       -0.982776     4.25529e-007   -1.57716e-005     8.06425e-007   -1.50236e-005          0.25266    -0.000397402
10.36                 -0.0104518       -0.982755     4.08549e-007   -1.57665e-005     7.87163e-007   -1.50257e-005          0.25285    -0.000397564
10.364                -0.0121721       -0.982731     3.91563e-007   -1.57613e-005     7.67893e-007   -1.50277e-005          0.25304    -0.000397725
10.368                -0.0138923       -0.982704     3.74571e-007   -1.57561e-005     7.48616e-007   -1.50297e-005          0.25323    -0.000397886
10.372                -0.0156123       -0.982674     3.57573e-007   -1.57509e-005     7.29331e-007   -1.50317e-005          0.25342    -0.000398047
10.376                -0.0173322       -0.982641     3.40569e-007   -1.57457e-005     7.10038e-007   -1.50336e-005          0.25361    -0.000398209
10.38                 -0.0190519       -0.982606     3.23559e-007   -1.57405e-005     6.90738e-007   -1.50355e-005         0.253799     -0.00039837
10.384                -0.0207715       -0.982567     3.06543e-007   -1.57353e-005      6.7143e-007   -1.50374e-005         0.253989    -0.000398532
10.388                 -0.022491       -0.982525     2.89522e-007   -1.57301e-005     6.52115e-007   -1.50392e-005         0.254179    -0.000398694
10.392                -0.0242102        -0.98248     2.72495e-007    -1.5725e-005     6.32792e-007    -1.5041e-005         0.254368    -0.000398856
10.396                -0.0259294       -0.982432     2.55462e-007   -1.57198e-005     6.13462e-007   -1.50428e-005         0.254557    -0.000399018
10.4                  -0.0276483       -0.982381     2.38423e-007   -1.57146e-005     5.94125e-007   -1.50445e-005         0.254747     -0.00039918
10.404                 -0.029367       -0.982327     2.21379e-007   -1.57094e-005      5.7478e-007   -1.50462e-005         0.254936    -0.000399342
10.408                -0.0310856        -0.98227     2.04329e-007   -1.57042e-005     5.55429e-007   -1.50479e-005         0.255125    -0.000399504
10.412                 -0.032804       -0.982209     1.87273e-007    -1.5699e-005      5.3607e-007   -1.50495e-005         0.255314    -0.000399666
10.416                -0.0345222       -0.982146     1.70212e-007   -1.56938e-005     5.16705e-007   -1.50511e-005         0.255503    -0.000399829
10.42                 -0.0362402        -0.98208     1.53145e-007   -1.56886e-005     4.97333e-007   -1.50527e-005         0.255691    -0.000399991
10.424                -0.0379579       -0.982011     1.36072e-007   -1.56834e-005     4.77954e-007   -1.50542e-005          0.25588    -0.000400154
10.428                -0.0396755       -0.981939     1.18994e-007   -1.56783e-005     4.58568e-007   -1.50557e-005         0.256069    -0.000400316
10.432                -0.0413929       -0.981864     1.01911e-007   -1.56731e-005     4.39176e-007   -1.50572e-005         0.256257    -0.000400479
10.436                  -0.04311       -0.981786      8.4822e-008   -1.56679e-005     4.19777e-007   -1.50586e-005         0.256446    -0.000400642
10.44                 -0.0448269       -0.981704     6.77277e-008   -1.56627e-005     4.00372e-007     -1.506e-005         0.256634    -0.000400805
10.444                -0.0465436        -0.98162      5.0628e-008   -1.56575e-005     3.80961e-007   -1.50613e-005         0.256822    -0.000400968
10.448                  -0.04826       -0.981533     3.35229e-008   -1.56523e-005     3.61543e-007   -1.50627e-005          0.25701    -0.000401131
10.452                -0.0499762       -0.981443     1.64125e-008   -1.56471e-005     3.42119e-007   -1.50639e-005         0.257199    -0.000401295
10.456                -0.0516922       -0.981349    -7.03162e-010   -1.56419e-005     3.22689e-007   -1.50652e-005         0.257387    -0.000401458
