! TOUCHSTONE file generated by CST MICROWAVE STUDIO
! Date and time: Wed Oct 17 00:33:40 2018
! Project name: 16 - Thru.cst
! Parameters = {Copper_W=0.017; Ex=0.6; G=0.15; GCPW_U_1_End=1; GCPW_U_2_End=3.76702; GCPW_U_3_End=6.53404; GCPW_Ucentre=6.53404; GCPW_VCentre=7.5; GCPW_V_1_End=7.5; GCPW_V_2_End=0.347476; GCPW_V_3_End=0.347476; GCPW_Via_R=0.15; GCPW_Via_U=6.23404; GCPW_Via_V=7.2; GCPW_Via_Wmax=0.017; GCPW_Via_Wmin=0.228; Ground_U=13.0681; Ground_V=15; Ground_Wmax=0.228; Ground_Wmin=0.211; K=5.22; L_1_E=2.76702; L_1_E_Umax=6.53404; L_1_E_Umin=3.76702; L_1_E_Vmax=0.197476; L_1_E_Vmin=0.197476; L_2_E=2.76702; L_2_E_Umax=3.76702; L_2_E_Umin=1; L_2_E_Vmax=0.229776; L_2_E_Vmin=0.197476; L_3_E=1; L_3_E_Umax=1; L_3_E_Umin=0; L_3_E_Vmax=0.229776; L_3_E_Vmin=0.229776; L_4_E=0; L_4_E_Umax=0; L_4_E_Umin=0; Mini_Factor=0.1; R_Screw=0.99; S_1=0.05; Substrate_U=13.0681; Substrate_V=15; Substrate_W=0.211; U_Screw=3.74404; V_Mini=0.065; V_Screw=4.765; Via_V_Spacing=0.26; Via_Wmax=0.017; Via_Wmin=0.228; Via_radius=0.15; W_1_E=0.394952; W_2_E=0.394952; W_3_E=0.459553; W_4_E=0; W_4_E_Vmax=0.229776; W_4_E_Vmin=0.229776; Width_Vary=0.1; Wmax_Screw=0.017; Wmin_Screw=0.228; Z0_Umax=0; Z0_Umin=0; Z12_Umax=0; Z12_Umin=0; Z1_Ex_Umax=0.53887; Z1_Ex_Umin=-0.53887; Z1_Ex_Vmax=1.71008; Z1_Ex_Vmin=0.767211; Z1_Mini_Umax=0.244941; Z1_Mini_Umin=-0.244941; Z1_Mini_Vmax=0.413635; Z1_Mini_Vmin=0.229776; Z1_Umax=1.2247; Z1_Umin=-1.2247; Z1_Via_Ucentre=-0.837353; Z1_Via_Vcentre=2.75838; Z1_Vmax=3.05838; Z1_Vmin=0.413635; Z23_Umax=0; Z23_Umin=0; Z2_Ex_Umax=0.54175; Z2_Ex_Umin=-0.54175; Z2_Ex_Vmax=1.74769; Z2_Ex_Vmin=0.788343; Z2_Mini_Umax=0.24625; Z2_Mini_Umin=-0.24625; Z2_Mini_Vmax=0.428588; Z2_Mini_Vmin=0.241515; Z2_Umax=1.23125; Z2_Umin=-1.23125; Z2_Via_Ucentre=-0.840625; Z2_Via_Vcentre=2.81955; Z2_Vmax=3.11956; Z2_Vmin=0.428588; Z34_Umax=0; Z34_Umin=0; Z3_Ex_Umax=0.548937; Z3_Ex_Umin=-0.548937; Z3_Ex_Vmax=1.72391; Z3_Ex_Vmin=0.765012; Z3_Mini_Umax=0.249517; Z3_Mini_Umin=-0.249517; Z3_Mini_Vmax=0.405427; Z3_Mini_Vmin=0.218443; Z3_Umax=1.24758; Z3_Umin=-1.24758; Z3_Via_Ucentre=-0.848792; Z3_Via_Vcentre=2.79512; Z3_Vmax=3.09512; Z3_Vmin=0.405427; l0=0; l1=2.8286; l12=0; l2=2.87804; l23=0; l3=2.87668; l34=0; left_origin_U=0; w0=0.459553; w1=2.44941; w12=0.51453; w2=2.4625; w23=0.48303; w3=2.49517; w34=0.436886}
! Header version: 2015
! Port assignment regex: !\s*Touchstone port\s*([0-9]+)\s*=\s*CST MWS port\s*([0-9]+)\s*\(\"(.*)\"\)(\s*mode\s*([0-9]+))?.*
! Touchstone port assignment:
! Touchstone port 1 = CST MWS port 1 ("")
! Touchstone port 2 = CST MWS port 2 ("")
# GHz S RI R 50
10                     0.0084939     0.000694233        -0.238088        0.952798        -0.238088        0.952796       0.00834068      0.00122717
10.004                0.00856415     0.000697985        -0.236376        0.953218        -0.236376        0.953216       0.00841244      0.00122928
10.008                0.00863456     0.000701474        -0.234664        0.953634        -0.234664        0.953633       0.00848433      0.00123114
10.012                0.00870515     0.000704698        -0.232951        0.954048        -0.232951        0.954046       0.00855636      0.00123275
10.016                 0.0087759     0.000707657        -0.231237        0.954459        -0.231238        0.954457       0.00862854      0.00123411
10.02                 0.00884682     0.000710349        -0.229523        0.954866        -0.229523        0.954865       0.00870084      0.00123522
10.024                 0.0089179     0.000712773        -0.227808        0.955271        -0.227808        0.955269       0.00877329      0.00123608
10.028                0.00898914      0.00071493        -0.226092        0.955672        -0.226092         0.95567       0.00884587      0.00123668
10.032                0.00906055     0.000716817        -0.224375         0.95607        -0.224375        0.956069       0.00891859      0.00123704
10.036                0.00913211     0.000718434        -0.222658        0.956466        -0.222658        0.956464       0.00899144      0.00123714
10.04                 0.00920384     0.000719781         -0.22094        0.956858         -0.22094        0.956856       0.00906442      0.00123698
10.044                0.00927572     0.000720855        -0.219221        0.957247        -0.219221        0.957245       0.00913754      0.00123657
10.048                0.00934776     0.000721658        -0.217501        0.957633        -0.217502        0.957631       0.00921078      0.00123591
10.052                0.00941995     0.000722187        -0.215781        0.958016        -0.215782        0.958014       0.00928416      0.00123499
10.056                 0.0094923     0.000722442        -0.214061        0.958395        -0.214061        0.958394       0.00935767      0.00123381
10.06                  0.0095648     0.000722422        -0.212339        0.958772        -0.212339        0.958771        0.0094313      0.00123238
10.064                0.00963745     0.000722127        -0.210617        0.959146        -0.210617        0.959144       0.00950507      0.00123069
10.068                0.00971025     0.000721555        -0.208894        0.959516        -0.208894        0.959515       0.00957896      0.00122874
10.072                0.00978321     0.000720706        -0.207171        0.959883        -0.207171        0.959882       0.00965297      0.00122653
10.076                 0.0098563      0.00071958        -0.205446        0.960248        -0.205447        0.960246       0.00972711      0.00122406
10.08                 0.00992955     0.000718174        -0.203722        0.960609        -0.203722        0.960608       0.00980138      0.00122133
10.084                 0.0100029     0.000716489        -0.201996        0.960967        -0.201997        0.960966       0.00987577      0.00121834
10.088                 0.0100765     0.000714525         -0.20027        0.961322         -0.20027        0.961321       0.00995028      0.00121509
10.092                 0.0101502     0.000712279        -0.198543        0.961674        -0.198544        0.961673        0.0100249      0.00121158
10.096                  0.010224     0.000709752        -0.196816        0.962022        -0.196816        0.962021        0.0100997       0.0012078
10.1                   0.0102979     0.000706942        -0.195088        0.962368        -0.195088        0.962367        0.0101745      0.00120376
10.104                  0.010372      0.00070385         -0.19336        0.962711         -0.19336         0.96271        0.0102495      0.00119946
10.108                 0.0104463     0.000700474         -0.19163         0.96305        -0.191631        0.963049        0.0103246      0.00119489
10.112                 0.0105206     0.000696814          -0.1899        0.963386        -0.189901        0.963385        0.0103999      0.00119006
10.116                 0.0105951     0.000692869         -0.18817         0.96372         -0.18817        0.963719        0.0104752      0.00118496
10.12                  0.0106698     0.000688638        -0.186439         0.96405        -0.186439        0.964049        0.0105507       0.0011796
10.124                 0.0107445     0.000684122        -0.184707        0.964377        -0.184708        0.964376        0.0106263      0.00117397
10.128                 0.0108194     0.000679318        -0.182975        0.964701        -0.182976          0.9647        0.0107019      0.00116807
10.132                 0.0108945     0.000674227        -0.181243        0.965021        -0.181243        0.965021        0.0107777      0.00116191
10.136                 0.0109696     0.000668848        -0.179509        0.965339         -0.17951        0.965338        0.0108537      0.00115548
10.14                  0.0110449      0.00066318        -0.177775        0.965654        -0.177776        0.965653        0.0109297      0.00114878
10.144                 0.0111203     0.000657223        -0.176041        0.965965        -0.176041        0.965964        0.0110058      0.00114181
10.148                 0.0111959     0.000650976        -0.174306        0.966273        -0.174306        0.966272        0.0110821      0.00113456
10.152                 0.0112715     0.000644439         -0.17257        0.966578        -0.172571        0.966578        0.0111584      0.00112705
10.156                 0.0113473      0.00063761        -0.170834         0.96688        -0.170834         0.96688        0.0112349      0.00111927
10.16                  0.0114232      0.00063049        -0.169098        0.967179        -0.169098        0.967179        0.0113114      0.00111122
10.164                 0.0114992     0.000623078         -0.16736        0.967475        -0.167361        0.967475        0.0113881      0.00110289
10.168                 0.0115754     0.000615374        -0.165623        0.967768        -0.165623        0.967767        0.0114649       0.0010943
10.172                 0.0116516     0.000607376        -0.163884        0.968057        -0.163885        0.968057        0.0115418      0.00108543
10.176                  0.011728     0.000599084        -0.162146        0.968344        -0.162146        0.968343        0.0116187      0.00107628
10.18                  0.0118045     0.000590498        -0.160406        0.968627        -0.160407        0.968627        0.0116958      0.00106686
10.184                 0.0118811     0.000581617        -0.158667        0.968907        -0.158667        0.968907         0.011773      0.00105717
10.188                 0.0119578     0.000572442        -0.156926        0.969184        -0.156927        0.969184        0.0118503      0.00104721
10.192                 0.0120346      0.00056297        -0.155186        0.969458        -0.155186        0.969458        0.0119277      0.00103696
10.196                 0.0121116     0.000553202        -0.153444        0.969729        -0.153445        0.969729        0.0120052      0.00102644
10.2                   0.0121886     0.000543137        -0.151703        0.969997        -0.151703        0.969996        0.0120827      0.00101565
10.204                 0.0122657     0.000532775         -0.14996        0.970261        -0.149961        0.970261        0.0121604      0.00100458
10.208                  0.012343     0.000522115        -0.148218        0.970523        -0.148218        0.970522        0.0122382     0.000993226
10.212                 0.0124204     0.000511158        -0.146474        0.970781        -0.146475         0.97078         0.012316     0.000981599
10.216                 0.0124978     0.000499901        -0.144731        0.971036        -0.144731        0.971036         0.012394     0.000969692
10.22                  0.0125754     0.000488346        -0.142987        0.971288        -0.142987        0.971288        0.0124721     0.000957507
10.224                  0.012653     0.000476491        -0.141242        0.971537        -0.141242        0.971536        0.0125502     0.000945043
10.228                 0.0127308     0.000464337        -0.139497        0.971782        -0.139498        0.971782        0.0126284     0.000932299
10.232                 0.0128086     0.000451882        -0.137752        0.972025        -0.137752        0.972025        0.0127067     0.000919274
10.236                 0.0128866     0.000439126        -0.136006        0.972264        -0.136006        0.972264        0.0127852     0.000905969
10.24                  0.0129646     0.000426069         -0.13426        0.972501         -0.13426        0.972501        0.0128637     0.000892382
10.244                 0.0130428     0.000412711        -0.132513        0.972734        -0.132513        0.972734        0.0129422     0.000878514
10.248                  0.013121     0.000399051        -0.130766        0.972964        -0.130766        0.972964        0.0130209     0.000864364
10.252                 0.0131993     0.000385088        -0.129018        0.973191        -0.129019        0.973191        0.0130997     0.000849931
10.256                 0.0132778     0.000370823        -0.127271        0.973414        -0.127271        0.973414        0.0131785     0.000835215
10.26                  0.0133563     0.000356255        -0.125522        0.973635        -0.125522        0.973635        0.0132574     0.000820216
10.264                 0.0134348     0.000341383        -0.123774        0.973852        -0.123774        0.973852        0.0133365     0.000804932
10.268                 0.0135135     0.000326208        -0.122024        0.974067        -0.122025        0.974067        0.0134155     0.000789365
10.272                 0.0135923     0.000310729        -0.120275        0.974278        -0.120275        0.974278        0.0134947     0.000773512
10.276                 0.0136711     0.000294945        -0.118525        0.974486        -0.118525        0.974486         0.013574     0.000757374
10.28                  0.0137501     0.000278857        -0.116775         0.97469        -0.116775        0.974691        0.0136533     0.000740951
10.284                 0.0138291     0.000262463        -0.115024        0.974892        -0.115024        0.974892        0.0137327     0.000724242
10.288                 0.0139082     0.000245764        -0.113273        0.975091        -0.113273        0.975091        0.0138122     0.000707246
10.292                 0.0139873      0.00022876        -0.111522        0.975286        -0.111522        0.975286        0.0138917     0.000689963
10.296                 0.0140666     0.000211449         -0.10977        0.975478         -0.10977        0.975478        0.0139714     0.000672393
10.3                   0.0141459     0.000193832        -0.108018        0.975667        -0.108018        0.975668        0.0140511     0.000654535
10.304                 0.0142253     0.000175909        -0.106266        0.975853        -0.106266        0.975853        0.0141309     0.000636389
10.308                 0.0143048     0.000157678        -0.104513        0.976036        -0.104513        0.976036        0.0142107     0.000617955
10.312                 0.0143843     0.000139141         -0.10276        0.976216         -0.10276        0.976216        0.0142906     0.000599231
10.316                 0.0144639     0.000120296        -0.101007        0.976392        -0.101007        0.976392        0.0143706     0.000580219
10.32                  0.0145436     0.000101144       -0.0992534        0.976565       -0.0992536        0.976566        0.0144507     0.000560916
10.324                 0.0146233     8.1683e-005       -0.0974995        0.976736       -0.0974996        0.976736        0.0145308     0.000541324
10.328                 0.0147032    6.19143e-005       -0.0957453        0.976903       -0.0957454        0.976903         0.014611     0.000521441
10.332                 0.0147831    4.18371e-005       -0.0939907        0.977066       -0.0939908        0.977067        0.0146913     0.000501267
10.336                  0.014863    2.14513e-005       -0.0922359        0.977227        -0.092236        0.977227        0.0147716     0.000480801
10.34                   0.014943    7.56484e-007       -0.0904808        0.977385       -0.0904809        0.977385         0.014852     0.000460045
10.344                 0.0150231   -2.02475e-005       -0.0887254        0.977539       -0.0887255        0.977539        0.0149325     0.000438996
10.348                 0.0151032   -4.15608e-005       -0.0869698         0.97769       -0.0869699         0.97769         0.015013     0.000417654
10.352                 0.0151834   -6.31837e-005       -0.0852139        0.977838       -0.0852139        0.977839        0.0150936      0.00039602
10.356                 0.0152637   -8.51165e-005       -0.0834577        0.977983       -0.0834577        0.977983        0.0151742     0.000374093
10.36                   0.015344    -0.000107359       -0.0817012        0.978125       -0.0817013        0.978125        0.0152549     0.000351873
10.364                 0.0154244    -0.000129912       -0.0799445        0.978263       -0.0799446        0.978264        0.0153357     0.000329358
10.368                 0.0155048    -0.000152776       -0.0781876        0.978399       -0.0781876        0.978399        0.0154165     0.000306549
10.372                 0.0155853     -0.00017595       -0.0764304        0.978531       -0.0764304        0.978531        0.0154974     0.000283446
10.376                 0.0156658    -0.000199435        -0.074673         0.97866        -0.074673         0.97866        0.0155783     0.000260048
10.38                  0.0157464     -0.00022323       -0.0729153        0.978786       -0.0729154        0.978786        0.0156593     0.000236354
10.384                 0.0158271    -0.000247337       -0.0711575        0.978909       -0.0711575        0.978909        0.0157403     0.000212365
10.388                 0.0159078    -0.000271756       -0.0693994        0.979028       -0.0693994        0.979029        0.0158214      0.00018808
10.392                 0.0159885    -0.000296485       -0.0676411        0.979145       -0.0676411        0.979145        0.0159025     0.000163499
10.396                 0.0160693    -0.000321527       -0.0658826        0.979258       -0.0658826        0.979258        0.0159837     0.000138621
10.4                   0.0161501     -0.00034688       -0.0641239        0.979368       -0.0641239        0.979368         0.016065     0.000113446
10.404                  0.016231    -0.000372545        -0.062365        0.979475        -0.062365        0.979475        0.0161463    8.79739e-005
10.408                 0.0163119    -0.000398523       -0.0606059        0.979579       -0.0606059        0.979579        0.0162276    6.22041e-005
10.412                 0.0163929    -0.000424812       -0.0588466        0.979679       -0.0588466         0.97968         0.016309    3.61364e-005
10.416                 0.0164739    -0.000451414       -0.0570872        0.979777       -0.0570871        0.979777        0.0163904    9.77041e-006
10.42                  0.0165549    -0.000478328       -0.0553276        0.979871       -0.0553275        0.979871        0.0164719   -1.68941e-005
10.424                  0.016636    -0.000505556       -0.0535678        0.979962       -0.0535677        0.979963        0.0165535   -4.38576e-005
10.428                 0.0167171    -0.000533095       -0.0518078         0.98005       -0.0518078         0.98005         0.016635   -7.11203e-005
10.432                 0.0167983    -0.000560948       -0.0500478        0.980135       -0.0500477        0.980135        0.0167166   -9.86824e-005
10.436                 0.0168795    -0.000589114       -0.0482875        0.980216       -0.0482874        0.980217        0.0167983    -0.000126544
10.44                  0.0169607    -0.000617593       -0.0465271        0.980294        -0.046527        0.980295          0.01688    -0.000154706
10.444                  0.017042    -0.000646385       -0.0447666         0.98037       -0.0447665         0.98037        0.0169617    -0.000183169
10.448                 0.0171233     -0.00067549       -0.0430059        0.980442       -0.0430058        0.980443        0.0170435    -0.000211932
10.452                 0.0172046    -0.000704909       -0.0412452        0.980511       -0.0412451        0.980511        0.0171253    -0.000240996
10.456                 0.0172859    -0.000734641       -0.0394843        0.980576       -0.0394841        0.980577        0.0172071    -0.000270362
10.46                  0.0173673    -0.000764687       -0.0377232        0.980639       -0.0377231         0.98064         0.017289    -0.000300029
