! TOUCHSTONE file generated by CST MICROWAVE STUDIO
! Date and time: Wed Oct 17 00:47:23 2018
! Project name: 16 - Line - Longer.cst
! Parameters = {Copper_W=0.017; Ex=0.6; G=0.15; GCPW_U_1_End=2.43275; GCPW_U_2_End=5.19977; GCPW_U_3_End=7.9668; GCPW_Ucentre=7.9668; GCPW_VCentre=7.5; GCPW_V_1_End=7.5; GCPW_V_2_End=0.347476; GCPW_V_3_End=0.347476; GCPW_Via_R=0.15; GCPW_Via_U=7.66679; GCPW_Via_V=7.2; GCPW_Via_Wmax=0.017; GCPW_Via_Wmin=0.228; Ground_U=15.9336; Ground_V=15; Ground_Wmax=0.228; Ground_Wmin=0.211; K=5.22; L_1_E=2.76702; L_1_E_Umax=7.9668; L_1_E_Umin=5.19977; L_1_E_Vmax=0.197476; L_1_E_Vmin=0.197476; L_2_E=2.76702; L_2_E_Umax=5.19977; L_2_E_Umin=2.43275; L_2_E_Vmax=0.229776; L_2_E_Vmin=0.197476; L_3_E=1; L_3_E_Umax=2.43275; L_3_E_Umin=1.43276; L_3_E_Vmax=0.229776; L_3_E_Vmin=0.229776; L_4_E=1.43276; L_4_E_Umax=1.43276; L_4_E_Umin=0; L_4_E_Vmax=0.229776; L_4_E_Vmin=0.229776; Mini_Factor=0.1; R_Screw=0.99; S_1=0.05; Substrate_U=15.9336; Substrate_V=15; Substrate_W=0.211; U_Screw=5.1768; V_Mini=0.065; V_Screw=4.765; Via_V_Spacing=0.26; Via_Wmax=0.017; Via_Wmin=0.228; Via_radius=0.15; W_1_E=0.394952; W_2_E=0.394952; W_3_E=0.459553; W_4_E=0.459553; Width_Vary=0.1; Wmax_Screw=0.017; Wmin_Screw=0.228; Z0_Umax=0; Z0_Umin=0; Z12_Umax=0; Z12_Umin=0; Z1_Ex_Umax=0.53887; Z1_Ex_Umin=-0.53887; Z1_Ex_Vmax=1.71008; Z1_Ex_Vmin=0.767211; Z1_Mini_Umax=0.244941; Z1_Mini_Umin=-0.244941; Z1_Mini_Vmax=0.413635; Z1_Mini_Vmin=0.229776; Z1_Umax=1.2247; Z1_Umin=-1.2247; Z1_Via_Ucentre=-0.837353; Z1_Via_Vcentre=2.75838; Z1_Vmax=3.05838; Z1_Vmin=0.413635; Z23_Umax=0; Z23_Umin=0; Z2_Ex_Umax=0.54175; Z2_Ex_Umin=-0.54175; Z2_Ex_Vmax=1.74769; Z2_Ex_Vmin=0.788343; Z2_Mini_Umax=0.24625; Z2_Mini_Umin=-0.24625; Z2_Mini_Vmax=0.428588; Z2_Mini_Vmin=0.241515; Z2_Umax=1.23125; Z2_Umin=-1.23125; Z2_Via_Ucentre=-0.840625; Z2_Via_Vcentre=2.81955; Z2_Vmax=3.11956; Z2_Vmin=0.428588; Z34_Umax=0; Z34_Umin=0; Z3_Ex_Umax=0.548937; Z3_Ex_Umin=-0.548937; Z3_Ex_Vmax=1.72391; Z3_Ex_Vmin=0.765012; Z3_Mini_Umax=0.249517; Z3_Mini_Umin=-0.249517; Z3_Mini_Vmax=0.405427; Z3_Mini_Vmin=0.218443; Z3_Umax=1.24758; Z3_Umin=-1.24758; Z3_Via_Ucentre=-0.848792; Z3_Via_Vcentre=2.79512; Z3_Vmax=3.09512; Z3_Vmin=0.405427; l0=0; l1=2.8286; l12=0; l2=2.87804; l23=0; l3=2.87668; l34=0; left_origin_U=0; w0=0.459553; w1=2.44941; w12=0.51453; w2=2.4625; w23=0.48303; w3=2.49517; w34=0.436886}
! Header version: 2015
! Port assignment regex: !\s*Touchstone port\s*([0-9]+)\s*=\s*CST MWS port\s*([0-9]+)\s*\(\"(.*)\"\)(\s*mode\s*([0-9]+))?.*
! Touchstone port assignment:
! Touchstone port 1 = CST MWS port 1 ("")
! Touchstone port 2 = CST MWS port 2 ("")
# GHz S RI R 50
10                     0.0523885      -0.0503124         0.663557        0.715632         0.663559        0.715633        0.0520874      -0.0506364
10.004                 0.0523396      -0.0504796         0.665112        0.714171         0.665114        0.714172        0.0520367      -0.0508041
10.008                 0.0522902      -0.0506469         0.666665        0.712706         0.666665        0.712708        0.0519855      -0.0509717
10.012                 0.0522402      -0.0508141         0.668214        0.711238         0.668213        0.711241        0.0519337      -0.0511394
10.016                 0.0521897      -0.0509814          0.66976        0.709767         0.669758         0.70977        0.0518814      -0.0513071
10.02                  0.0521387      -0.0511487         0.671302        0.708292           0.6713        0.708295        0.0518286      -0.0514748
10.024                 0.0520872       -0.051316         0.672841        0.706814         0.672839        0.706818        0.0517753      -0.0516425
10.028                 0.0520351      -0.0514832         0.674378        0.705332         0.674374        0.705337        0.0517214      -0.0518101
10.032                 0.0519825      -0.0516505          0.67591        0.703848         0.675906        0.703853         0.051667      -0.0519778
10.036                 0.0519294      -0.0518178          0.67744        0.702359         0.677435        0.702365        0.0516121      -0.0521454
10.04                  0.0518757      -0.0519851         0.678966        0.700868          0.67896        0.700874        0.0515566       -0.052313
10.044                 0.0518215      -0.0521524         0.680489        0.699373         0.680483         0.69938        0.0515006      -0.0524806
10.048                 0.0517667      -0.0523197         0.682009        0.697875         0.682002        0.697882        0.0514441      -0.0526482
10.052                 0.0517115      -0.0524869         0.683525        0.696373         0.683517        0.696381         0.051387      -0.0528157
10.056                 0.0516556      -0.0526542         0.685038        0.694869          0.68503        0.694877        0.0513294      -0.0529832
10.06                  0.0515993      -0.0528214         0.686548        0.693361         0.686539        0.693369        0.0512713      -0.0531507
10.064                 0.0515424      -0.0529886         0.688054        0.691849         0.688044        0.691858        0.0512126      -0.0533182
10.068                  0.051485      -0.0531559         0.689557        0.690335         0.689547        0.690344        0.0511534      -0.0534856
10.072                  0.051427      -0.0533231         0.691057        0.688817         0.691046        0.688827        0.0510937       -0.053653
10.076                 0.0513685      -0.0534902         0.692553        0.687295         0.692541        0.687306        0.0510334      -0.0538204
10.08                  0.0513095      -0.0536574         0.694046        0.685771         0.694034        0.685782        0.0509726      -0.0539877
10.084                 0.0512499      -0.0538245         0.695535        0.684243         0.695523        0.684255        0.0509112       -0.054155
10.088                 0.0511898      -0.0539916         0.697022        0.682712         0.697008        0.682724        0.0508494      -0.0543222
10.092                 0.0511291      -0.0541587         0.698504        0.681178         0.698491         0.68119        0.0507869      -0.0544894
10.096                 0.0510679      -0.0543257         0.699984        0.679641          0.69997        0.679653         0.050724      -0.0546566
10.1                   0.0510061      -0.0544927          0.70146          0.6781         0.701445        0.678113        0.0506605      -0.0548237
10.104                 0.0509439      -0.0546597         0.702933        0.676556         0.702917         0.67657        0.0505965      -0.0549908
10.108                  0.050881      -0.0548266         0.704402        0.675009         0.704386        0.675023        0.0505319      -0.0551578
10.112                 0.0508177      -0.0549935         0.705868        0.673459         0.705851        0.673473        0.0504668      -0.0553247
10.116                 0.0507538      -0.0551604          0.70733        0.671905         0.707313         0.67192        0.0504012      -0.0554916
10.12                  0.0506893      -0.0553272         0.708789        0.670349         0.708772        0.670364         0.050335      -0.0556585
10.124                 0.0506243       -0.055494         0.710245        0.668789         0.710227        0.668805        0.0502683      -0.0558253
10.128                 0.0505588      -0.0556607         0.711697        0.667226         0.711678        0.667242         0.050201       -0.055992
10.132                 0.0504927      -0.0558274         0.713145        0.665659         0.713126        0.665676        0.0501332      -0.0561586
10.136                 0.0504261       -0.055994          0.71459         0.66409         0.714571        0.664107        0.0500649      -0.0563252
10.14                  0.0503589      -0.0561605         0.716032        0.662518         0.716012        0.662535         0.049996      -0.0564918
10.144                 0.0502912       -0.056327          0.71747        0.660942          0.71745         0.66096        0.0499266      -0.0566582
10.148                 0.0502229      -0.0564935         0.718905        0.659363         0.718885        0.659382        0.0498566      -0.0568246
10.152                 0.0501541      -0.0566599         0.720336        0.657781         0.720315          0.6578        0.0497861      -0.0569909
10.156                 0.0500848      -0.0568262         0.721764        0.656196         0.721743        0.656216        0.0497151      -0.0571571
10.16                  0.0500149      -0.0569925         0.723189        0.654608         0.723167        0.654628        0.0496435      -0.0573233
10.164                 0.0499444      -0.0571587         0.724609        0.653017         0.724587        0.653037        0.0495714      -0.0574894
10.168                 0.0498734      -0.0573248         0.726027        0.651423         0.726004        0.651443        0.0494988      -0.0576554
10.172                 0.0498019      -0.0574909          0.72744        0.649825         0.727417        0.649846        0.0494256      -0.0578213
10.176                 0.0497298      -0.0576569         0.728851        0.648225         0.728827        0.648246        0.0493518      -0.0579871
10.18                  0.0496572      -0.0578228         0.730257        0.646622         0.730234        0.646643        0.0492775      -0.0581529
10.184                  0.049584      -0.0579886          0.73166        0.645015         0.731636        0.645037        0.0492027      -0.0583185
10.188                 0.0495103      -0.0581544          0.73306        0.643405         0.733036        0.643428        0.0491273      -0.0584841
10.192                  0.049436        -0.05832         0.734456        0.641793         0.734431        0.641815        0.0490514      -0.0586495
10.196                 0.0493612      -0.0584856         0.735849        0.640177         0.735824          0.6402         0.048975      -0.0588149
10.2                   0.0492858      -0.0586511         0.737238        0.638558         0.737212        0.638582         0.048898      -0.0589802
10.204                 0.0492099      -0.0588166         0.738623        0.636936         0.738597         0.63696        0.0488205      -0.0591453
10.208                 0.0491335      -0.0589819         0.740005        0.635312         0.739979        0.635336        0.0487424      -0.0593104
10.212                 0.0490564      -0.0591471         0.741383        0.633684         0.741357        0.633708        0.0486638      -0.0594753
10.216                 0.0489789      -0.0593123         0.742758        0.632053         0.742731        0.632078        0.0485846      -0.0596402
10.22                  0.0489008      -0.0594773         0.744129        0.630419         0.744102        0.630445        0.0485049      -0.0598049
10.224                 0.0488221      -0.0596423         0.745496        0.628783         0.745469        0.628808        0.0484247      -0.0599696
10.228                 0.0487429      -0.0598071          0.74686        0.627143         0.746832        0.627169        0.0483439      -0.0601341
10.232                 0.0486632      -0.0599719          0.74822          0.6255         0.748192        0.625527        0.0482625      -0.0602985
10.236                 0.0485829      -0.0601365         0.749577        0.623855         0.749549        0.623881        0.0481807      -0.0604628
10.24                   0.048502       -0.060301          0.75093        0.622206         0.750901        0.622233        0.0480983       -0.060627
10.244                 0.0484206      -0.0604654         0.752279        0.620555          0.75225        0.620582        0.0480153       -0.060791
10.248                 0.0483387      -0.0606298         0.753625          0.6189         0.753596        0.618928        0.0479318       -0.060955
10.252                 0.0482562       -0.060794         0.754967        0.617243         0.754938        0.617271        0.0478478      -0.0611188
10.256                 0.0481731       -0.060958         0.756305        0.615583         0.756276        0.615611        0.0477632      -0.0612824
10.26                  0.0480895       -0.061122          0.75764        0.613919          0.75761        0.613948         0.047678       -0.061446
10.264                 0.0480054      -0.0612859         0.758971        0.612253         0.758941        0.612282        0.0475924      -0.0616094
10.268                 0.0479207      -0.0614496         0.760298        0.610584         0.760268        0.610613        0.0475062      -0.0617727
10.272                 0.0478355      -0.0616132         0.761622        0.608912         0.761592        0.608942        0.0474194      -0.0619358
10.276                 0.0477497      -0.0617767         0.762942        0.607238         0.762912        0.607267        0.0473321      -0.0620988
10.28                  0.0476633        -0.06194         0.764258         0.60556         0.764228         0.60559        0.0472443      -0.0622617
10.284                 0.0475765      -0.0621032         0.765571         0.60388          0.76554         0.60391        0.0471559      -0.0624244
10.288                  0.047489      -0.0622663         0.766879        0.602196         0.766849        0.602227         0.047067       -0.062587
10.292                  0.047401      -0.0624292         0.768185         0.60051         0.768154        0.600541        0.0469775      -0.0627495
10.296                 0.0473125      -0.0625921         0.769486        0.598821         0.769455        0.598852        0.0468875      -0.0629117
10.3                   0.0472234      -0.0627547         0.770784        0.597129         0.770753        0.597161         0.046797      -0.0630739
10.304                 0.0471338      -0.0629173         0.772078        0.595435         0.772047        0.595467        0.0467059      -0.0632359
10.308                 0.0470436      -0.0630796         0.773368        0.593737         0.773337        0.593769        0.0466143      -0.0633977
10.312                 0.0469529      -0.0632419         0.774655        0.592037         0.774623        0.592069        0.0465221      -0.0635594
10.316                 0.0468616       -0.063404         0.775937        0.590334         0.775906        0.590367        0.0464294      -0.0637209
10.32                  0.0467698      -0.0635659         0.777216        0.588628         0.777185        0.588661        0.0463361      -0.0638823
10.324                 0.0466774      -0.0637277         0.778492         0.58692          0.77846        0.586953        0.0462423      -0.0640434
10.328                 0.0465845      -0.0638893         0.779763        0.585209         0.779732        0.585242         0.046148      -0.0642045
10.332                  0.046491      -0.0640508         0.781031        0.583495         0.780999        0.583528        0.0460531      -0.0643653
10.336                  0.046397      -0.0642121         0.782295        0.581778         0.782263        0.581811        0.0459577       -0.064526
10.34                  0.0463024      -0.0643733         0.783555        0.580058         0.783523        0.580092        0.0458618      -0.0646866
10.344                 0.0462073      -0.0645343         0.784812        0.578336          0.78478         0.57837        0.0457653      -0.0648469
10.348                 0.0461117      -0.0646951         0.786064        0.576611         0.786032        0.576645        0.0456683      -0.0650071
10.352                 0.0460155      -0.0648558         0.787313        0.574883         0.787281        0.574918        0.0455707      -0.0651671
10.356                 0.0459187      -0.0650162         0.788558        0.573153         0.788526        0.573188        0.0454726      -0.0653269
10.36                  0.0458214      -0.0651766         0.789799         0.57142         0.789767        0.571455         0.045374      -0.0654865
10.364                 0.0457236      -0.0653367         0.791036        0.569684         0.791004        0.569719        0.0452748       -0.065646
10.368                 0.0456252      -0.0654967          0.79227        0.567945         0.792238        0.567981        0.0451751      -0.0658052
10.372                 0.0455263      -0.0656565           0.7935        0.566204         0.793467         0.56624        0.0450748      -0.0659643
10.376                 0.0454268      -0.0658161         0.794726         0.56446         0.794693        0.564496         0.044974      -0.0661232
10.38                  0.0453268      -0.0659755         0.795948        0.562714         0.795915         0.56275        0.0448727      -0.0662819
10.384                 0.0452262      -0.0661347         0.797166        0.560965         0.797133        0.561001        0.0447708      -0.0664404
10.388                 0.0451251      -0.0662938          0.79838        0.559213         0.798348        0.559249        0.0446684      -0.0665987
10.392                 0.0450234      -0.0664526         0.799591        0.557459         0.799558        0.557495        0.0445655      -0.0667568
10.396                 0.0449212      -0.0666113         0.800797        0.555702         0.800765        0.555738         0.044462      -0.0669147
10.4                   0.0448185      -0.0667698            0.802        0.553942         0.801968        0.553979         0.044358      -0.0670724
10.404                 0.0447152      -0.0669281         0.803199         0.55218         0.803166        0.552217        0.0442534      -0.0672299
10.408                 0.0446113      -0.0670861         0.804394        0.550415         0.804361        0.550452        0.0441484      -0.0673872
10.412                  0.044507       -0.067244         0.805585        0.548648         0.805553        0.548685        0.0440428      -0.0675443
10.416                 0.0444021      -0.0674017         0.806772        0.546878          0.80674        0.546915        0.0439366      -0.0677012
10.42                  0.0442966      -0.0675592         0.807955        0.545105         0.807923        0.545143        0.0438299      -0.0678578
10.424                 0.0441906      -0.0677164         0.809135         0.54333         0.809103        0.543368        0.0437227      -0.0680143
10.428                 0.0440841      -0.0678735          0.81031        0.541552         0.810278         0.54159         0.043615      -0.0681705
10.432                  0.043977      -0.0680303         0.811482        0.539772          0.81145         0.53981        0.0435067      -0.0683265
10.436                 0.0438694       -0.068187          0.81265        0.537989         0.812618        0.538027        0.0433979      -0.0684823
10.44                  0.0437612      -0.0683434         0.813813        0.536204         0.813781        0.536242        0.0432885      -0.0686379
10.444                 0.0436525      -0.0684996         0.814973        0.534416         0.814941        0.534455        0.0431787      -0.0687932
10.448                 0.0435433      -0.0686556         0.816129        0.532626         0.816097        0.532665        0.0430683      -0.0689483
10.452                 0.0434335      -0.0688113         0.817281        0.530833         0.817249        0.530872        0.0429574      -0.0691032
10.456                 0.0433232      -0.0689669         0.818429        0.529038         0.818397        0.529077        0.0428459      -0.0692578
10.46                  0.0432123      -0.0691222         0.819573         0.52724         0.819541        0.527279        0.0427339      -0.0694123
